Circuit: * D:\Courses\S24\Digital VLSI Design\Project 1 Spring 2024\Project 1 Spring 2024\Single-MOS\NMOS-on\Draft1.asc

Direct Newton iteration for .op point succeeded.
Semiconductor Device Operating Points:
                        --- MOSFET Transistors ---
Name:          m2          m1
Model:        nmos        nmos
Id:          0.00e+00    0.00e+00
Vgs:         1.00e+00    1.00e+00
Vds:         0.00e+00    0.00e+00
Vbs:         0.00e+00    0.00e+00
Vth:         0.00e+00    0.00e+00
Vdsat:       1.00e+00    1.00e+00
Gm:          0.00e+00    0.00e+00
Gds:         2.00e-05    2.00e-05
Gmb:         0.00e+00    0.00e+00
Cbd:         0.00e+00    0.00e+00
Cbs:         0.00e+00    0.00e+00
Cgsov:       0.00e+00    0.00e+00
Cgdov:       0.00e+00    0.00e+00
Cgbov:       0.00e+00    0.00e+00
Cgs:         0.00e+00    0.00e+00
Cgd:         0.00e+00    0.00e+00
Cgb:         0.00e+00    0.00e+00



Date: Tue Mar 26 01:10:01 2024
Total elapsed time: 0.067 seconds.

tnom = 27
temp = 27
method = trap
totiter = 3
traniter = 0
tranpoints = 0
accept = 0
rejected = 0
matrix size = 7
fillins = 0
solver = Normal
Matrix Compiler1: 196 bytes object code size
Matrix Compiler2: 461 bytes object code size
