Valim,Vd,Vg,Vs,Vb,Id,Ig,Is,Ib
0.000000e+00,0.000000e+00,0.000000e+00,0.000000e+00,0.000000e+00,3.960066e-42,-5.30080e-46,-7.56417e-42,3.604630e-42,
1.000000e-02,1.000000e-02,0.000000e+00,0.000000e+00,0.000000e+00,-5.01421e-11,4.905594e-15,5.011963e-11,1.754642e-14,
2.000000e-02,2.000000e-02,0.000000e+00,0.000000e+00,0.000000e+00,-9.26645e-11,1.062721e-14,9.262083e-11,3.300425e-14,
3.000000e-02,3.000000e-02,0.000000e+00,0.000000e+00,0.000000e+00,-1.27655e-10,1.721436e-14,1.275913e-10,4.695155e-14,
4.000000e-02,4.000000e-02,0.000000e+00,0.000000e+00,0.000000e+00,-1.55762e-10,2.471874e-14,1.556777e-10,5.980637e-14,
5.000000e-02,5.000000e-02,0.000000e+00,0.000000e+00,0.000000e+00,-1.78193e-10,3.319431e-14,1.780875e-10,7.187108e-14,
6.000000e-02,6.000000e-02,0.000000e+00,0.000000e+00,0.000000e+00,-1.96469e-10,4.269738e-14,1.963431e-10,8.336436e-14,
7.000000e-02,7.000000e-02,0.000000e+00,0.000000e+00,0.000000e+00,-2.12042e-10,5.328671e-14,2.118943e-10,9.444436e-14,
8.000000e-02,8.000000e-02,0.000000e+00,0.000000e+00,0.000000e+00,-2.26031e-10,6.502360e-14,2.258607e-10,1.052255e-13,
9.000000e-02,9.000000e-02,0.000000e+00,0.000000e+00,0.000000e+00,-2.39192e-10,7.797201e-14,2.389986e-10,1.157904e-13,
1.000000e-01,1.000000e-01,0.000000e+00,0.000000e+00,0.000000e+00,-2.52006e-10,9.219861e-14,2.517875e-10,1.261990e-13,
1.100000e-01,1.100000e-01,0.000000e+00,0.000000e+00,0.000000e+00,-2.64772e-10,1.077729e-13,2.645279e-10,1.364945e-13,
1.200000e-01,1.200000e-01,0.000000e+00,0.000000e+00,0.000000e+00,-2.77684e-10,1.247675e-13,2.774124e-10,1.467082e-13,
1.300000e-01,1.300000e-01,0.000000e+00,0.000000e+00,0.000000e+00,-2.90870e-10,1.432578e-13,2.905702e-10,1.568628e-13,
1.400000e-01,1.400000e-01,0.000000e+00,0.000000e+00,0.000000e+00,-3.04423e-10,1.633225e-13,3.040926e-10,1.669746e-13,
1.500000e-01,1.500000e-01,0.000000e+00,0.000000e+00,0.000000e+00,-3.18411e-10,1.850438e-13,3.180486e-10,1.770555e-13,
1.600000e-01,1.600000e-01,0.000000e+00,0.000000e+00,0.000000e+00,-3.32889e-10,2.085069e-13,3.324933e-10,1.871140e-13,
1.700000e-01,1.700000e-01,0.000000e+00,0.000000e+00,0.000000e+00,-3.47904e-10,2.338009e-13,3.474735e-10,1.971564e-13,
1.800000e-01,1.800000e-01,0.000000e+00,0.000000e+00,0.000000e+00,-3.63499e-10,2.610184e-13,3.630307e-10,2.071870e-13,
1.900000e-01,1.900000e-01,0.000000e+00,0.000000e+00,0.000000e+00,-3.79711e-10,2.902559e-13,3.792035e-10,2.172092e-13,
2.000000e-01,2.000000e-01,0.000000e+00,0.000000e+00,0.000000e+00,-3.96578e-10,3.216137e-13,3.960287e-10,2.272253e-13,
2.100000e-01,2.100000e-01,0.000000e+00,0.000000e+00,0.000000e+00,-4.14135e-10,3.551963e-13,4.135421e-10,2.372369e-13,
2.200000e-01,2.200000e-01,0.000000e+00,0.000000e+00,0.000000e+00,-4.32418e-10,3.911125e-13,4.317796e-10,2.472453e-13,
2.300000e-01,2.300000e-01,0.000000e+00,0.000000e+00,0.000000e+00,-4.51464e-10,4.294753e-13,4.507771e-10,2.572515e-13,
2.400000e-01,2.400000e-01,0.000000e+00,0.000000e+00,0.000000e+00,-4.71309e-10,4.704024e-13,4.705711e-10,2.672559e-13,
2.500000e-01,2.500000e-01,0.000000e+00,0.000000e+00,0.000000e+00,-4.91990e-10,5.140162e-13,4.911991e-10,2.772592e-13,
2.600000e-01,2.600000e-01,0.000000e+00,0.000000e+00,0.000000e+00,-5.13547e-10,5.604439e-13,5.126992e-10,2.872616e-13,
2.700000e-01,2.700000e-01,0.000000e+00,0.000000e+00,0.000000e+00,-5.36018e-10,6.098178e-13,5.351113e-10,2.972633e-13,
2.800000e-01,2.800000e-01,0.000000e+00,0.000000e+00,0.000000e+00,-5.59446e-10,6.622754e-13,5.584761e-10,3.072646e-13,
2.900000e-01,2.900000e-01,0.000000e+00,0.000000e+00,0.000000e+00,-5.83871e-10,7.179599e-13,5.828360e-10,3.172656e-13,
3.000000e-01,3.000000e-01,0.000000e+00,0.000000e+00,0.000000e+00,-6.09339e-10,7.770196e-13,6.082350e-10,3.272663e-13,
3.100000e-01,3.100000e-01,0.000000e+00,0.000000e+00,0.000000e+00,-6.35896e-10,8.396091e-13,6.347188e-10,3.372669e-13,
3.200000e-01,3.200000e-01,0.000000e+00,0.000000e+00,0.000000e+00,-6.63588e-10,9.058888e-13,6.623348e-10,3.472674e-13,
3.300000e-01,3.300000e-01,0.000000e+00,0.000000e+00,0.000000e+00,-6.92466e-10,9.760254e-13,6.911324e-10,3.572678e-13,
3.400000e-01,3.400000e-01,0.000000e+00,0.000000e+00,0.000000e+00,-7.22580e-10,1.050192e-12,7.211628e-10,3.672681e-13,
3.500000e-01,3.500000e-01,0.000000e+00,0.000000e+00,0.000000e+00,-7.53985e-10,1.128568e-12,7.524795e-10,3.772684e-13,
3.600000e-01,3.600000e-01,0.000000e+00,0.000000e+00,0.000000e+00,-7.86737e-10,1.211341e-12,7.851382e-10,3.872687e-13,
3.700000e-01,3.700000e-01,0.000000e+00,0.000000e+00,0.000000e+00,-8.20893e-10,1.298705e-12,8.191968e-10,3.972689e-13,
3.800000e-01,3.800000e-01,0.000000e+00,0.000000e+00,0.000000e+00,-8.56514e-10,1.390860e-12,8.547157e-10,4.072692e-13,
3.900000e-01,3.900000e-01,0.000000e+00,0.000000e+00,0.000000e+00,-8.93663e-10,1.488016e-12,8.917579e-10,4.172694e-13,
4.000000e-01,4.000000e-01,0.000000e+00,0.000000e+00,0.000000e+00,-9.32407e-10,1.590389e-12,9.303889e-10,4.272697e-13,
4.100000e-01,4.100000e-01,0.000000e+00,0.000000e+00,0.000000e+00,-9.72813e-10,1.698206e-12,9.706772e-10,4.372699e-13,
4.200000e-01,4.200000e-01,0.000000e+00,0.000000e+00,0.000000e+00,-1.01495e-09,1.811699e-12,1.012694e-09,4.472702e-13,
4.300000e-01,4.300000e-01,0.000000e+00,0.000000e+00,0.000000e+00,-1.05890e-09,1.931111e-12,1.056514e-09,4.572705e-13,
4.400000e-01,4.400000e-01,0.000000e+00,0.000000e+00,0.000000e+00,-1.10474e-09,2.056694e-12,1.102214e-09,4.672708e-13,
4.500000e-01,4.500000e-01,0.000000e+00,0.000000e+00,0.000000e+00,-1.15254e-09,2.188708e-12,1.149876e-09,4.772711e-13,
4.600000e-01,4.600000e-01,0.000000e+00,0.000000e+00,0.000000e+00,-1.20240e-09,2.327424e-12,1.199583e-09,4.872714e-13,
4.700000e-01,4.700000e-01,0.000000e+00,0.000000e+00,0.000000e+00,-1.25440e-09,2.473124e-12,1.251425e-09,4.972717e-13,
4.800000e-01,4.800000e-01,0.000000e+00,0.000000e+00,0.000000e+00,-1.30863e-09,2.626097e-12,1.305493e-09,5.072721e-13,
4.900000e-01,4.900000e-01,0.000000e+00,0.000000e+00,0.000000e+00,-1.36519e-09,2.786647e-12,1.361884e-09,5.172725e-13,
5.000000e-01,5.000000e-01,0.000000e+00,0.000000e+00,0.000000e+00,-1.42418e-09,2.955086e-12,1.420697e-09,5.272729e-13,
5.100000e-01,5.100000e-01,0.000000e+00,0.000000e+00,0.000000e+00,-1.48571e-09,3.131739e-12,1.482038e-09,5.372733e-13,
5.200000e-01,5.200000e-01,0.000000e+00,0.000000e+00,0.000000e+00,-1.54988e-09,3.316943e-12,1.546017e-09,5.472738e-13,
5.300000e-01,5.300000e-01,0.000000e+00,0.000000e+00,0.000000e+00,-1.61682e-09,3.511047e-12,1.612748e-09,5.572742e-13,
5.400000e-01,5.400000e-01,0.000000e+00,0.000000e+00,0.000000e+00,-1.68663e-09,3.714411e-12,1.682351e-09,5.672747e-13,
5.500000e-01,5.500000e-01,0.000000e+00,0.000000e+00,0.000000e+00,-1.75946e-09,3.927412e-12,1.754952e-09,5.772753e-13,
5.600000e-01,5.600000e-01,0.000000e+00,0.000000e+00,0.000000e+00,-1.83542e-09,4.150437e-12,1.830682e-09,5.872758e-13,
5.700000e-01,5.700000e-01,0.000000e+00,0.000000e+00,0.000000e+00,-1.91466e-09,4.383889e-12,1.909678e-09,5.972764e-13,
5.800000e-01,5.800000e-01,0.000000e+00,0.000000e+00,0.000000e+00,-1.99732e-09,4.628185e-12,1.992085e-09,6.072771e-13,
5.900000e-01,5.900000e-01,0.000000e+00,0.000000e+00,0.000000e+00,-2.08355e-09,4.883757e-12,2.078053e-09,6.172777e-13,
6.000000e-01,6.000000e-01,0.000000e+00,0.000000e+00,0.000000e+00,-2.17352e-09,5.151054e-12,2.167739e-09,6.272784e-13,
6.100000e-01,6.100000e-01,0.000000e+00,0.000000e+00,0.000000e+00,-2.26738e-09,5.430538e-12,2.261309e-09,6.372792e-13,
6.200000e-01,6.200000e-01,0.000000e+00,0.000000e+00,0.000000e+00,-2.36531e-09,5.722690e-12,2.358937e-09,6.472800e-13,
6.300000e-01,6.300000e-01,0.000000e+00,0.000000e+00,0.000000e+00,-2.46749e-09,6.028008e-12,2.460803e-09,6.572808e-13,
6.400000e-01,6.400000e-01,0.000000e+00,0.000000e+00,0.000000e+00,-2.57411e-09,6.347008e-12,2.567099e-09,6.672817e-13,
6.500000e-01,6.500000e-01,0.000000e+00,0.000000e+00,0.000000e+00,-2.68538e-09,6.680222e-12,2.678024e-09,6.772826e-13,
6.600000e-01,6.600000e-01,0.000000e+00,0.000000e+00,0.000000e+00,-2.80150e-09,7.028203e-12,2.793787e-09,6.872836e-13,
6.700000e-01,6.700000e-01,0.000000e+00,0.000000e+00,0.000000e+00,-2.92270e-09,7.391524e-12,2.914608e-09,6.972846e-13,
6.800000e-01,6.800000e-01,0.000000e+00,0.000000e+00,0.000000e+00,-3.04920e-09,7.770777e-12,3.040718e-09,7.072857e-13,
6.900000e-01,6.900000e-01,0.000000e+00,0.000000e+00,0.000000e+00,-3.18124e-09,8.166575e-12,3.172358e-09,7.172868e-13,
7.000000e-01,7.000000e-01,0.000000e+00,0.000000e+00,0.000000e+00,-3.31909e-09,8.579554e-12,3.309784e-09,7.272880e-13,
7.100000e-01,7.100000e-01,0.000000e+00,0.000000e+00,0.000000e+00,-3.46301e-09,9.010370e-12,3.453261e-09,7.372893e-13,
7.200000e-01,7.200000e-01,0.000000e+00,0.000000e+00,0.000000e+00,-3.61328e-09,9.459704e-12,3.603070e-09,7.472906e-13,
7.300000e-01,7.300000e-01,0.000000e+00,0.000000e+00,0.000000e+00,-3.77019e-09,9.928260e-12,3.759505e-09,7.572921e-13,
7.400000e-01,7.400000e-01,0.000000e+00,0.000000e+00,0.000000e+00,-3.93406e-09,1.041677e-11,3.922876e-09,7.672935e-13,
7.500000e-01,7.500000e-01,0.000000e+00,0.000000e+00,0.000000e+00,-4.10521e-09,1.092598e-11,4.093507e-09,7.772951e-13,
7.600000e-01,7.600000e-01,0.000000e+00,0.000000e+00,0.000000e+00,-4.28398e-09,1.145667e-11,4.271739e-09,7.872968e-13,
7.700000e-01,7.700000e-01,0.000000e+00,0.000000e+00,0.000000e+00,-4.47074e-09,1.200966e-11,4.457933e-09,7.972985e-13,
7.800000e-01,7.800000e-01,0.000000e+00,0.000000e+00,0.000000e+00,-4.66586e-09,1.258578e-11,4.652464e-09,8.073004e-13,
7.900000e-01,7.900000e-01,0.000000e+00,0.000000e+00,0.000000e+00,-4.86973e-09,1.318589e-11,4.855730e-09,8.173023e-13,
8.000000e-01,8.000000e-01,0.000000e+00,0.000000e+00,0.000000e+00,-5.08279e-09,1.381088e-11,5.068148e-09,8.273043e-13,
8.100000e-01,8.100000e-01,0.000000e+00,0.000000e+00,0.000000e+00,-5.30545e-09,1.446169e-11,5.290156e-09,8.373065e-13,
8.200000e-01,8.200000e-01,0.000000e+00,0.000000e+00,0.000000e+00,-5.53820e-09,1.513927e-11,5.522215e-09,8.473087e-13,
8.300000e-01,8.300000e-01,0.000000e+00,0.000000e+00,0.000000e+00,-5.78151e-09,1.584460e-11,5.764810e-09,8.573111e-13,
8.400000e-01,8.400000e-01,0.000000e+00,0.000000e+00,0.000000e+00,-6.03590e-09,1.657871e-11,6.018452e-09,8.673136e-13,
8.500000e-01,8.500000e-01,0.000000e+00,0.000000e+00,0.000000e+00,-6.30190e-09,1.734267e-11,6.283678e-09,8.773163e-13,
8.600000e-01,8.600000e-01,0.000000e+00,0.000000e+00,0.000000e+00,-6.58008e-09,1.813755e-11,6.561051e-09,8.873190e-13,
8.700000e-01,8.700000e-01,0.000000e+00,0.000000e+00,0.000000e+00,-6.87103e-09,1.896451e-11,6.851167e-09,8.973219e-13,
8.800000e-01,8.800000e-01,0.000000e+00,0.000000e+00,0.000000e+00,-7.17538e-09,1.982470e-11,7.154649e-09,9.073250e-13,
8.900000e-01,8.900000e-01,0.000000e+00,0.000000e+00,0.000000e+00,-7.49379e-09,2.071934e-11,7.472157e-09,9.173283e-13,
9.000000e-01,9.000000e-01,0.000000e+00,0.000000e+00,0.000000e+00,-7.82696e-09,2.164968e-11,7.804382e-09,9.273316e-13,
9.100000e-01,9.100000e-01,0.000000e+00,0.000000e+00,0.000000e+00,-8.17561e-09,2.261702e-11,8.152052e-09,9.373352e-13,
9.200000e-01,9.200000e-01,0.000000e+00,0.000000e+00,0.000000e+00,-8.54050e-09,2.362268e-11,8.515934e-09,9.473390e-13,
9.300000e-01,9.300000e-01,0.000000e+00,0.000000e+00,0.000000e+00,-8.92246e-09,2.466806e-11,8.896835e-09,9.573429e-13,
9.400000e-01,9.400000e-01,0.000000e+00,0.000000e+00,0.000000e+00,-9.32233e-09,2.575458e-11,9.295603e-09,9.673754e-13,
9.500000e-01,9.500000e-01,0.000000e+00,0.000000e+00,0.000000e+00,-9.74099e-09,2.688372e-11,9.713132e-09,9.774335e-13,
9.600000e-01,9.600000e-01,0.000000e+00,0.000000e+00,0.000000e+00,-1.01794e-08,2.805701e-11,1.015036e-08,9.875206e-13,
9.700000e-01,9.700000e-01,0.000000e+00,0.000000e+00,0.000000e+00,-1.06386e-08,2.927603e-11,1.060829e-08,9.976499e-13,
9.800000e-01,9.800000e-01,0.000000e+00,0.000000e+00,0.000000e+00,-1.11195e-08,3.054240e-11,1.108794e-08,1.007840e-12,
9.900000e-01,9.900000e-01,0.000000e+00,0.000000e+00,0.000000e+00,-1.16233e-08,3.185782e-11,1.159043e-08,1.018119e-12,
1.000000e+00,1.000000e+00,0.000000e+00,0.000000e+00,0.000000e+00,-1.21511e-08,3.322403e-11,1.211689e-08,1.028524e-12,
