Valim,Vd,Vg,Vs,Vb,Id,Ig,Is,Ib
0.000000e+00,1.000000e+00,0.000000e+00,0.000000e+00,0.000000e+00,-4.94601e-09,1.353571e-11,4.931455e-09,1.016147e-12,
1.000000e-02,1.000000e+00,0.000000e+00,1.000000e-02,0.000000e+00,-3.65177e-09,1.353771e-11,3.637206e-09,1.030228e-12,
2.000000e-02,1.000000e+00,0.000000e+00,2.000000e-02,0.000000e+00,-2.69244e-09,1.354004e-11,2.677855e-09,1.043227e-12,
3.000000e-02,1.000000e+00,0.000000e+00,3.000000e-02,0.000000e+00,-1.98291e-09,1.354273e-11,1.968315e-09,1.055422e-12,
4.000000e-02,1.000000e+00,0.000000e+00,4.000000e-02,0.000000e+00,-1.45921e-09,1.354578e-11,1.444597e-09,1.067024e-12,
5.000000e-02,1.000000e+00,0.000000e+00,5.000000e-02,0.000000e+00,-1.07338e-09,1.354924e-11,1.058752e-09,1.078190e-12,
6.000000e-02,1.000000e+00,0.000000e+00,6.000000e-02,0.000000e+00,-7.89607e-10,1.355311e-11,7.749650e-10,1.089036e-12,
7.000000e-02,1.000000e+00,0.000000e+00,7.000000e-02,0.000000e+00,-5.81222e-10,1.355742e-11,5.665647e-10,1.099651e-12,
8.000000e-02,1.000000e+00,0.000000e+00,8.000000e-02,0.000000e+00,-4.28414e-10,1.356221e-11,4.137422e-10,1.110098e-12,
9.000000e-02,1.000000e+00,0.000000e+00,9.000000e-02,0.000000e+00,-3.16509e-10,1.356748e-11,3.018211e-10,1.120421e-12,
1.000000e-01,1.000000e+00,0.000000e+00,1.000000e-01,0.000000e+00,-2.34656e-10,1.357328e-11,2.199522e-10,1.130654e-12,
1.100000e-01,1.000000e+00,0.000000e+00,1.100000e-01,0.000000e+00,-1.74852e-10,1.357962e-11,1.601313e-10,1.140823e-12,
1.200000e-01,1.000000e+00,0.000000e+00,1.200000e-01,0.000000e+00,-1.31202e-10,1.358655e-11,1.164641e-10,1.150945e-12,
1.300000e-01,1.000000e+00,0.000000e+00,1.300000e-01,0.000000e+00,-9.93727e-11,1.359408e-11,8.461761e-11,1.161034e-12,
1.400000e-01,1.000000e+00,0.000000e+00,1.400000e-01,0.000000e+00,-7.61842e-11,1.360225e-11,6.141089e-11,1.171097e-12,
1.500000e-01,1.000000e+00,0.000000e+00,1.500000e-01,0.000000e+00,-5.93046e-11,1.361110e-11,4.451238e-11,1.181144e-12,
1.600000e-01,1.000000e+00,0.000000e+00,1.600000e-01,0.000000e+00,-4.70270e-11,1.362066e-11,3.221516e-11,1.191177e-12,
1.700000e-01,1.000000e+00,0.000000e+00,1.700000e-01,0.000000e+00,-3.81032e-11,1.363097e-11,2.327103e-11,1.201201e-12,
1.800000e-01,1.000000e+00,0.000000e+00,1.800000e-01,0.000000e+00,-3.16216e-11,1.364206e-11,1.676829e-11,1.211219e-12,
1.900000e-01,1.000000e+00,0.000000e+00,1.900000e-01,0.000000e+00,-2.69168e-11,1.365397e-11,1.204161e-11,1.221231e-12,
2.000000e-01,1.000000e+00,0.000000e+00,2.000000e-01,0.000000e+00,-2.35039e-11,1.366674e-11,8.605960e-12,1.231241e-12,
2.100000e-01,1.000000e+00,0.000000e+00,2.100000e-01,0.000000e+00,-2.10297e-11,1.368042e-11,6.108014e-12,1.241247e-12,
2.200000e-01,1.000000e+00,0.000000e+00,2.200000e-01,0.000000e+00,-1.92369e-11,1.369506e-11,4.290605e-12,1.251252e-12,
2.300000e-01,1.000000e+00,0.000000e+00,2.300000e-01,0.000000e+00,-1.79386e-11,1.371069e-11,2.966688e-12,1.261255e-12,
2.400000e-01,1.000000e+00,0.000000e+00,2.400000e-01,0.000000e+00,-1.69989e-11,1.372736e-11,2.000314e-12,1.271258e-12,
2.500000e-01,1.000000e+00,0.000000e+00,2.500000e-01,0.000000e+00,-1.63191e-11,1.374513e-11,1.292734e-12,1.281260e-12,
2.600000e-01,1.000000e+00,0.000000e+00,2.600000e-01,0.000000e+00,-1.58276e-11,1.376404e-11,7.722582e-13,1.291261e-12,
2.700000e-01,1.000000e+00,0.000000e+00,2.700000e-01,0.000000e+00,-1.54723e-11,1.378416e-11,3.868713e-13,1.301262e-12,
2.800000e-01,1.000000e+00,0.000000e+00,2.800000e-01,0.000000e+00,-1.52156e-11,1.380553e-11,9.884767e-14,1.311263e-12,
2.900000e-01,1.000000e+00,0.000000e+00,2.900000e-01,0.000000e+00,-1.50303e-11,1.382822e-11,-1.19164e-13,1.321263e-12,
3.000000e-01,1.000000e+00,0.000000e+00,3.000000e-01,0.000000e+00,-1.48966e-11,1.385228e-11,-2.86988e-13,1.331263e-12,
3.100000e-01,1.000000e+00,0.000000e+00,3.100000e-01,0.000000e+00,-1.48000e-11,1.387778e-11,-4.18993e-13,1.341264e-12,
3.200000e-01,1.000000e+00,0.000000e+00,3.200000e-01,0.000000e+00,-1.47305e-11,1.390478e-11,-5.25593e-13,1.351264e-12,
3.300000e-01,1.000000e+00,0.000000e+00,3.300000e-01,0.000000e+00,-1.46803e-11,1.393335e-11,-6.14337e-13,1.361264e-12,
3.400000e-01,1.000000e+00,0.000000e+00,3.400000e-01,0.000000e+00,-1.46441e-11,1.396357e-11,-6.90705e-13,1.371264e-12,
3.500000e-01,1.000000e+00,0.000000e+00,3.500000e-01,0.000000e+00,-1.46181e-11,1.399550e-11,-7.58676e-13,1.381264e-12,
3.600000e-01,1.000000e+00,0.000000e+00,3.600000e-01,0.000000e+00,-1.45993e-11,1.402922e-11,-8.21148e-13,1.391264e-12,
3.700000e-01,1.000000e+00,0.000000e+00,3.700000e-01,0.000000e+00,-1.45858e-11,1.406482e-11,-8.80235e-13,1.401264e-12,
3.800000e-01,1.000000e+00,0.000000e+00,3.800000e-01,0.000000e+00,-1.45761e-11,1.410236e-11,-9.37489e-13,1.411264e-12,
3.900000e-01,1.000000e+00,0.000000e+00,3.900000e-01,0.000000e+00,-1.45692e-11,1.414194e-11,-9.94054e-13,1.421264e-12,
4.000000e-01,1.000000e+00,0.000000e+00,4.000000e-01,0.000000e+00,-1.45641e-11,1.418365e-11,-1.05078e-12,1.431264e-12,
4.100000e-01,1.000000e+00,0.000000e+00,4.100000e-01,0.000000e+00,-1.45605e-11,1.422758e-11,-1.10832e-12,1.441264e-12,
4.200000e-01,1.000000e+00,0.000000e+00,4.200000e-01,0.000000e+00,-1.45579e-11,1.427381e-11,-1.16715e-12,1.451264e-12,
4.300000e-01,1.000000e+00,0.000000e+00,4.300000e-01,0.000000e+00,-1.45561e-11,1.432246e-11,-1.22766e-12,1.461264e-12,
4.400000e-01,1.000000e+00,0.000000e+00,4.400000e-01,0.000000e+00,-1.45547e-11,1.437363e-11,-1.29016e-12,1.471264e-12,
4.500000e-01,1.000000e+00,0.000000e+00,4.500000e-01,0.000000e+00,-1.45538e-11,1.442741e-11,-1.35490e-12,1.481264e-12,
4.600000e-01,1.000000e+00,0.000000e+00,4.600000e-01,0.000000e+00,-1.45531e-11,1.448392e-11,-1.42210e-12,1.491264e-12,
4.700000e-01,1.000000e+00,0.000000e+00,4.700000e-01,0.000000e+00,-1.45526e-11,1.454328e-11,-1.49195e-12,1.501264e-12,
4.800000e-01,1.000000e+00,0.000000e+00,4.800000e-01,0.000000e+00,-1.45522e-11,1.460561e-11,-1.56463e-12,1.511264e-12,
4.900000e-01,1.000000e+00,0.000000e+00,4.900000e-01,0.000000e+00,-1.45520e-11,1.467102e-11,-1.64029e-12,1.521264e-12,
5.000000e-01,1.000000e+00,0.000000e+00,5.000000e-01,0.000000e+00,-1.45518e-11,1.473964e-11,-1.71910e-12,1.531264e-12,
5.100000e-01,1.000000e+00,0.000000e+00,5.100000e-01,0.000000e+00,-1.45517e-11,1.481161e-11,-1.80120e-12,1.541264e-12,
5.200000e-01,1.000000e+00,0.000000e+00,5.200000e-01,0.000000e+00,-1.45516e-11,1.488706e-11,-1.88675e-12,1.551264e-12,
5.300000e-01,1.000000e+00,0.000000e+00,5.300000e-01,0.000000e+00,-1.45515e-11,1.496614e-11,-1.97589e-12,1.561264e-12,
5.400000e-01,1.000000e+00,0.000000e+00,5.400000e-01,0.000000e+00,-1.45515e-11,1.504899e-11,-2.06879e-12,1.571264e-12,
5.500000e-01,1.000000e+00,0.000000e+00,5.500000e-01,0.000000e+00,-1.45514e-11,1.513577e-11,-2.16560e-12,1.581264e-12,
5.600000e-01,1.000000e+00,0.000000e+00,5.600000e-01,0.000000e+00,-1.45514e-11,1.522663e-11,-2.26649e-12,1.591264e-12,
5.700000e-01,1.000000e+00,0.000000e+00,5.700000e-01,0.000000e+00,-1.45514e-11,1.532174e-11,-2.37162e-12,1.601264e-12,
5.800000e-01,1.000000e+00,0.000000e+00,5.800000e-01,0.000000e+00,-1.45514e-11,1.542127e-11,-2.48116e-12,1.611264e-12,
5.900000e-01,1.000000e+00,0.000000e+00,5.900000e-01,0.000000e+00,-1.45514e-11,1.552539e-11,-2.59529e-12,1.621264e-12,
6.000000e-01,1.000000e+00,0.000000e+00,6.000000e-01,0.000000e+00,-1.45514e-11,1.563429e-11,-2.71419e-12,1.631264e-12,
6.100000e-01,1.000000e+00,0.000000e+00,6.100000e-01,0.000000e+00,-1.45514e-11,1.574816e-11,-2.83806e-12,1.641264e-12,
6.200000e-01,1.000000e+00,0.000000e+00,6.200000e-01,0.000000e+00,-1.45514e-11,1.586718e-11,-2.96709e-12,1.651264e-12,
6.300000e-01,1.000000e+00,0.000000e+00,6.300000e-01,0.000000e+00,-1.45514e-11,1.599157e-11,-3.10148e-12,1.661264e-12,
6.400000e-01,1.000000e+00,0.000000e+00,6.400000e-01,0.000000e+00,-1.45514e-11,1.612153e-11,-3.24145e-12,1.671264e-12,
6.500000e-01,1.000000e+00,0.000000e+00,6.500000e-01,0.000000e+00,-1.45513e-11,1.625729e-11,-3.38720e-12,1.681264e-12,
6.600000e-01,1.000000e+00,0.000000e+00,6.600000e-01,0.000000e+00,-1.45513e-11,1.639906e-11,-3.53897e-12,1.691264e-12,
6.700000e-01,1.000000e+00,0.000000e+00,6.700000e-01,0.000000e+00,-1.45513e-11,1.654708e-11,-3.69699e-12,1.701264e-12,
6.800000e-01,1.000000e+00,0.000000e+00,6.800000e-01,0.000000e+00,-1.45513e-11,1.670159e-11,-3.86150e-12,1.711264e-12,
6.900000e-01,1.000000e+00,0.000000e+00,6.900000e-01,0.000000e+00,-1.45513e-11,1.686284e-11,-4.03275e-12,1.721264e-12,
7.000000e-01,1.000000e+00,0.000000e+00,7.000000e-01,0.000000e+00,-1.45513e-11,1.703109e-11,-4.21101e-12,1.731264e-12,
7.100000e-01,1.000000e+00,0.000000e+00,7.100000e-01,0.000000e+00,-1.45513e-11,1.720661e-11,-4.39652e-12,1.741264e-12,
7.200000e-01,1.000000e+00,0.000000e+00,7.200000e-01,0.000000e+00,-1.45513e-11,1.738967e-11,-4.58959e-12,1.751264e-12,
7.300000e-01,1.000000e+00,0.000000e+00,7.300000e-01,0.000000e+00,-1.45513e-11,1.758056e-11,-4.79048e-12,1.761264e-12,
7.400000e-01,1.000000e+00,0.000000e+00,7.400000e-01,0.000000e+00,-1.45513e-11,1.777958e-11,-4.99950e-12,1.771264e-12,
7.500000e-01,1.000000e+00,0.000000e+00,7.500000e-01,0.000000e+00,-1.45513e-11,1.798704e-11,-5.21696e-12,1.781264e-12,
7.600000e-01,1.000000e+00,0.000000e+00,7.600000e-01,0.000000e+00,-1.45513e-11,1.820325e-11,-5.44317e-12,1.791264e-12,
7.700000e-01,1.000000e+00,0.000000e+00,7.700000e-01,0.000000e+00,-1.45513e-11,1.842854e-11,-5.67846e-12,1.801264e-12,
7.800000e-01,1.000000e+00,0.000000e+00,7.800000e-01,0.000000e+00,-1.45513e-11,1.866325e-11,-5.92317e-12,1.811264e-12,
7.900000e-01,1.000000e+00,0.000000e+00,7.900000e-01,0.000000e+00,-1.45513e-11,1.890774e-11,-6.17766e-12,1.821264e-12,
8.000000e-01,1.000000e+00,0.000000e+00,8.000000e-01,0.000000e+00,-1.45513e-11,1.916237e-11,-6.44229e-12,1.831264e-12,
8.100000e-01,1.000000e+00,0.000000e+00,8.100000e-01,0.000000e+00,-1.45513e-11,1.942751e-11,-6.71743e-12,1.841264e-12,
8.200000e-01,1.000000e+00,0.000000e+00,8.200000e-01,0.000000e+00,-1.45513e-11,1.970356e-11,-7.00348e-12,1.851264e-12,
8.300000e-01,1.000000e+00,0.000000e+00,8.300000e-01,0.000000e+00,-1.45513e-11,1.999092e-11,-7.30084e-12,1.861264e-12,
8.400000e-01,1.000000e+00,0.000000e+00,8.400000e-01,0.000000e+00,-1.45513e-11,2.029000e-11,-7.60992e-12,1.871264e-12,
8.500000e-01,1.000000e+00,0.000000e+00,8.500000e-01,0.000000e+00,-1.45513e-11,2.060125e-11,-7.93116e-12,1.881264e-12,
8.600000e-01,1.000000e+00,0.000000e+00,8.600000e-01,0.000000e+00,-1.45513e-11,2.092509e-11,-8.26501e-12,1.891264e-12,
8.700000e-01,1.000000e+00,0.000000e+00,8.700000e-01,0.000000e+00,-1.45513e-11,2.126200e-11,-8.61191e-12,1.901264e-12,
8.800000e-01,1.000000e+00,0.000000e+00,8.800000e-01,0.000000e+00,-1.45513e-11,2.161245e-11,-8.97236e-12,1.911264e-12,
8.900000e-01,1.000000e+00,0.000000e+00,8.900000e-01,0.000000e+00,-1.45513e-11,2.197693e-11,-9.34685e-12,1.921264e-12,
9.000000e-01,1.000000e+00,0.000000e+00,9.000000e-01,0.000000e+00,-1.45513e-11,2.235596e-11,-9.73587e-12,1.931264e-12,
9.100000e-01,1.000000e+00,0.000000e+00,9.100000e-01,0.000000e+00,-1.45513e-11,2.275005e-11,-1.01400e-11,1.941264e-12,
9.200000e-01,1.000000e+00,0.000000e+00,9.200000e-01,0.000000e+00,-1.45513e-11,2.315977e-11,-1.05597e-11,1.951264e-12,
9.300000e-01,1.000000e+00,0.000000e+00,9.300000e-01,0.000000e+00,-1.45513e-11,2.358566e-11,-1.09956e-11,1.961264e-12,
9.400000e-01,1.000000e+00,0.000000e+00,9.400000e-01,0.000000e+00,-1.45513e-11,2.402832e-11,-1.14482e-11,1.971264e-12,
9.500000e-01,1.000000e+00,0.000000e+00,9.500000e-01,0.000000e+00,-1.45513e-11,2.448834e-11,-1.19183e-11,1.981264e-12,
9.600000e-01,1.000000e+00,0.000000e+00,9.600000e-01,0.000000e+00,-1.45513e-11,2.496635e-11,-1.24063e-11,1.991264e-12,
9.700000e-01,1.000000e+00,0.000000e+00,9.700000e-01,0.000000e+00,-1.45513e-11,2.546299e-11,-1.29129e-11,2.001264e-12,
9.800000e-01,1.000000e+00,0.000000e+00,9.800000e-01,0.000000e+00,-1.45513e-11,2.597892e-11,-1.34388e-11,2.011264e-12,
9.900000e-01,1.000000e+00,0.000000e+00,9.900000e-01,0.000000e+00,-1.45513e-11,2.651483e-11,-1.39847e-11,2.021264e-12,
1.000000e+00,1.000000e+00,0.000000e+00,1.000000e+00,0.000000e+00,-1.45513e-11,2.707143e-11,-1.45513e-11,2.031264e-12,
