Valim,Vd,Vg,Vs,Vb,Id,Ig,Is,Ib
0.000000e+00,1.000000e+00,0.000000e+00,0.000000e+00,0.000000e+00,-4.09772e-08,1.119773e-10,4.086414e-08,1.078028e-12,
1.000000e-02,1.000000e+00,0.000000e+00,1.000000e-02,0.000000e+00,-3.02535e-08,1.119938e-10,3.014038e-08,1.106438e-12,
2.000000e-02,1.000000e+00,0.000000e+00,2.000000e-02,0.000000e+00,-2.23042e-08,1.120131e-10,2.219105e-08,1.130146e-12,
3.000000e-02,1.000000e+00,0.000000e+00,3.000000e-02,0.000000e+00,-1.64247e-08,1.120353e-10,1.631149e-08,1.150274e-12,
4.000000e-02,1.000000e+00,0.000000e+00,4.000000e-02,0.000000e+00,-1.20849e-08,1.120606e-10,1.197163e-08,1.167712e-12,
5.000000e-02,1.000000e+00,0.000000e+00,5.000000e-02,0.000000e+00,-8.88751e-09,1.120892e-10,8.774242e-09,1.183153e-12,
6.000000e-02,1.000000e+00,0.000000e+00,6.000000e-02,0.000000e+00,-6.53590e-09,1.121212e-10,6.422577e-09,1.197119e-12,
7.000000e-02,1.000000e+00,0.000000e+00,7.000000e-02,0.000000e+00,-4.80900e-09,1.121569e-10,4.695634e-09,1.210008e-12,
8.000000e-02,1.000000e+00,0.000000e+00,8.000000e-02,0.000000e+00,-3.54268e-09,1.121964e-10,3.429264e-09,1.222111e-12,
9.000000e-02,1.000000e+00,0.000000e+00,9.000000e-02,0.000000e+00,-2.61532e-09,1.122401e-10,2.501847e-09,1.233632e-12,
1.000000e-01,1.000000e+00,0.000000e+00,1.000000e-01,0.000000e+00,-1.93701e-09,1.122880e-10,1.823475e-09,1.244732e-12,
1.100000e-01,1.000000e+00,0.000000e+00,1.100000e-01,0.000000e+00,-1.44141e-09,1.123405e-10,1.327816e-09,1.255527e-12,
1.200000e-01,1.000000e+00,0.000000e+00,1.200000e-01,0.000000e+00,-1.07969e-09,1.123978e-10,9.660258e-10,1.266103e-12,
1.300000e-01,1.000000e+00,0.000000e+00,1.300000e-01,0.000000e+00,-8.15929e-10,1.124601e-10,7.021928e-10,1.276519e-12,
1.400000e-01,1.000000e+00,0.000000e+00,1.400000e-01,0.000000e+00,-6.23772e-10,1.125277e-10,5.099578e-10,1.286820e-12,
1.500000e-01,1.000000e+00,0.000000e+00,1.500000e-01,0.000000e+00,-4.83896e-10,1.126009e-10,3.699984e-10,1.297037e-12,
1.600000e-01,1.000000e+00,0.000000e+00,1.600000e-01,0.000000e+00,-3.82156e-10,1.126800e-10,2.681691e-10,1.307195e-12,
1.700000e-01,1.000000e+00,0.000000e+00,1.700000e-01,0.000000e+00,-3.08209e-10,1.127653e-10,1.941263e-10,1.317309e-12,
1.800000e-01,1.000000e+00,0.000000e+00,1.800000e-01,0.000000e+00,-2.54499e-10,1.128570e-10,1.403145e-10,1.327391e-12,
1.900000e-01,1.000000e+00,0.000000e+00,1.900000e-01,0.000000e+00,-2.15513e-10,1.129555e-10,1.012204e-10,1.337450e-12,
2.000000e-01,1.000000e+00,0.000000e+00,2.000000e-01,0.000000e+00,-1.87233e-10,1.130612e-10,7.282453e-11,1.347493e-12,
2.100000e-01,1.000000e+00,0.000000e+00,2.100000e-01,0.000000e+00,-1.66731e-10,1.131744e-10,5.219894e-11,1.357525e-12,
2.200000e-01,1.000000e+00,0.000000e+00,2.200000e-01,0.000000e+00,-1.51876e-10,1.132955e-10,3.721259e-11,1.367547e-12,
2.300000e-01,1.000000e+00,0.000000e+00,2.300000e-01,0.000000e+00,-1.41118e-10,1.134248e-10,2.631551e-11,1.377563e-12,
2.400000e-01,1.000000e+00,0.000000e+00,2.400000e-01,0.000000e+00,-1.33331e-10,1.135627e-10,1.838115e-11,1.387575e-12,
2.500000e-01,1.000000e+00,0.000000e+00,2.500000e-01,0.000000e+00,-1.27699e-10,1.137097e-10,1.259123e-11,1.397584e-12,
2.600000e-01,1.000000e+00,0.000000e+00,2.600000e-01,0.000000e+00,-1.23625e-10,1.138662e-10,8.351711e-12,1.407590e-12,
2.700000e-01,1.000000e+00,0.000000e+00,2.700000e-01,0.000000e+00,-1.20682e-10,1.140326e-10,5.231564e-12,1.417594e-12,
2.800000e-01,1.000000e+00,0.000000e+00,2.800000e-01,0.000000e+00,-1.18555e-10,1.142094e-10,2.918189e-12,1.427597e-12,
2.900000e-01,1.000000e+00,0.000000e+00,2.900000e-01,0.000000e+00,-1.17020e-10,1.143971e-10,1.184950e-12,1.437600e-12,
3.000000e-01,1.000000e+00,0.000000e+00,3.000000e-01,0.000000e+00,-1.15911e-10,1.145961e-10,-1.32425e-13,1.447601e-12,
3.100000e-01,1.000000e+00,0.000000e+00,3.100000e-01,0.000000e+00,-1.15112e-10,1.148071e-10,-1.15299e-12,1.457602e-12,
3.200000e-01,1.000000e+00,0.000000e+00,3.200000e-01,0.000000e+00,-1.14535e-10,1.150305e-10,-1.96302e-12,1.467603e-12,
3.300000e-01,1.000000e+00,0.000000e+00,3.300000e-01,0.000000e+00,-1.14119e-10,1.152668e-10,-2.62510e-12,1.477604e-12,
3.400000e-01,1.000000e+00,0.000000e+00,3.400000e-01,0.000000e+00,-1.13820e-10,1.155168e-10,-3.18460e-12,1.487604e-12,
3.500000e-01,1.000000e+00,0.000000e+00,3.500000e-01,0.000000e+00,-1.13604e-10,1.157810e-10,-3.67451e-12,1.497605e-12,
3.600000e-01,1.000000e+00,0.000000e+00,3.600000e-01,0.000000e+00,-1.13449e-10,1.160599e-10,-4.11883e-12,1.507605e-12,
3.700000e-01,1.000000e+00,0.000000e+00,3.700000e-01,0.000000e+00,-1.13337e-10,1.163544e-10,-4.53509e-12,1.517605e-12,
3.800000e-01,1.000000e+00,0.000000e+00,3.800000e-01,0.000000e+00,-1.13256e-10,1.166650e-10,-4.93613e-12,1.527605e-12,
3.900000e-01,1.000000e+00,0.000000e+00,3.900000e-01,0.000000e+00,-1.13199e-10,1.169924e-10,-5.33144e-12,1.537605e-12,
4.000000e-01,1.000000e+00,0.000000e+00,4.000000e-01,0.000000e+00,-1.13157e-10,1.173375e-10,-5.72807e-12,1.547605e-12,
4.100000e-01,1.000000e+00,0.000000e+00,4.100000e-01,0.000000e+00,-1.13127e-10,1.177009e-10,-6.13135e-12,1.557605e-12,
4.200000e-01,1.000000e+00,0.000000e+00,4.200000e-01,0.000000e+00,-1.13106e-10,1.180834e-10,-6.54534e-12,1.567605e-12,
4.300000e-01,1.000000e+00,0.000000e+00,4.300000e-01,0.000000e+00,-1.13090e-10,1.184858e-10,-6.97322e-12,1.577605e-12,
4.400000e-01,1.000000e+00,0.000000e+00,4.400000e-01,0.000000e+00,-1.13079e-10,1.189091e-10,-7.41756e-12,1.587605e-12,
4.500000e-01,1.000000e+00,0.000000e+00,4.500000e-01,0.000000e+00,-1.13071e-10,1.193540e-10,-7.88044e-12,1.597605e-12,
4.600000e-01,1.000000e+00,0.000000e+00,4.600000e-01,0.000000e+00,-1.13065e-10,1.198216e-10,-8.36367e-12,1.607605e-12,
4.700000e-01,1.000000e+00,0.000000e+00,4.700000e-01,0.000000e+00,-1.13061e-10,1.203126e-10,-8.86882e-12,1.617605e-12,
4.800000e-01,1.000000e+00,0.000000e+00,4.800000e-01,0.000000e+00,-1.13058e-10,1.208282e-10,-9.39733e-12,1.627605e-12,
4.900000e-01,1.000000e+00,0.000000e+00,4.900000e-01,0.000000e+00,-1.13056e-10,1.213693e-10,-9.95054e-12,1.637605e-12,
5.000000e-01,1.000000e+00,0.000000e+00,5.000000e-01,0.000000e+00,-1.13055e-10,1.219370e-10,-1.05297e-11,1.647605e-12,
5.100000e-01,1.000000e+00,0.000000e+00,5.100000e-01,0.000000e+00,-1.13054e-10,1.225324e-10,-1.11362e-11,1.657605e-12,
5.200000e-01,1.000000e+00,0.000000e+00,5.200000e-01,0.000000e+00,-1.13053e-10,1.231566e-10,-1.17712e-11,1.667605e-12,
5.300000e-01,1.000000e+00,0.000000e+00,5.300000e-01,0.000000e+00,-1.13052e-10,1.238108e-10,-1.24359e-11,1.677605e-12,
5.400000e-01,1.000000e+00,0.000000e+00,5.400000e-01,0.000000e+00,-1.13052e-10,1.244962e-10,-1.31318e-11,1.687605e-12,
5.500000e-01,1.000000e+00,0.000000e+00,5.500000e-01,0.000000e+00,-1.13052e-10,1.252141e-10,-1.38599e-11,1.697605e-12,
5.600000e-01,1.000000e+00,0.000000e+00,5.600000e-01,0.000000e+00,-1.13052e-10,1.259658e-10,-1.46218e-11,1.707605e-12,
5.700000e-01,1.000000e+00,0.000000e+00,5.700000e-01,0.000000e+00,-1.13051e-10,1.267526e-10,-1.54188e-11,1.717605e-12,
5.800000e-01,1.000000e+00,0.000000e+00,5.800000e-01,0.000000e+00,-1.13051e-10,1.275760e-10,-1.62522e-11,1.727605e-12,
5.900000e-01,1.000000e+00,0.000000e+00,5.900000e-01,0.000000e+00,-1.13051e-10,1.284373e-10,-1.71237e-11,1.737605e-12,
6.000000e-01,1.000000e+00,0.000000e+00,6.000000e-01,0.000000e+00,-1.13051e-10,1.293382e-10,-1.80346e-11,1.747605e-12,
6.100000e-01,1.000000e+00,0.000000e+00,6.100000e-01,0.000000e+00,-1.13051e-10,1.302802e-10,-1.89866e-11,1.757605e-12,
6.200000e-01,1.000000e+00,0.000000e+00,6.200000e-01,0.000000e+00,-1.13051e-10,1.312649e-10,-1.99813e-11,1.767605e-12,
6.300000e-01,1.000000e+00,0.000000e+00,6.300000e-01,0.000000e+00,-1.13051e-10,1.322939e-10,-2.10204e-11,1.777605e-12,
6.400000e-01,1.000000e+00,0.000000e+00,6.400000e-01,0.000000e+00,-1.13051e-10,1.333690e-10,-2.21055e-11,1.787605e-12,
6.500000e-01,1.000000e+00,0.000000e+00,6.500000e-01,0.000000e+00,-1.13051e-10,1.344921e-10,-2.32386e-11,1.797605e-12,
6.600000e-01,1.000000e+00,0.000000e+00,6.600000e-01,0.000000e+00,-1.13051e-10,1.356649e-10,-2.44214e-11,1.807605e-12,
6.700000e-01,1.000000e+00,0.000000e+00,6.700000e-01,0.000000e+00,-1.13051e-10,1.368894e-10,-2.56560e-11,1.817605e-12,
6.800000e-01,1.000000e+00,0.000000e+00,6.800000e-01,0.000000e+00,-1.13051e-10,1.381677e-10,-2.69442e-11,1.827605e-12,
6.900000e-01,1.000000e+00,0.000000e+00,6.900000e-01,0.000000e+00,-1.13051e-10,1.395017e-10,-2.82882e-11,1.837605e-12,
7.000000e-01,1.000000e+00,0.000000e+00,7.000000e-01,0.000000e+00,-1.13051e-10,1.408935e-10,-2.96901e-11,1.847605e-12,
7.100000e-01,1.000000e+00,0.000000e+00,7.100000e-01,0.000000e+00,-1.13051e-10,1.423456e-10,-3.11521e-11,1.857605e-12,
7.200000e-01,1.000000e+00,0.000000e+00,7.200000e-01,0.000000e+00,-1.13051e-10,1.438600e-10,-3.26765e-11,1.867605e-12,
7.300000e-01,1.000000e+00,0.000000e+00,7.300000e-01,0.000000e+00,-1.13051e-10,1.454392e-10,-3.42657e-11,1.877605e-12,
7.400000e-01,1.000000e+00,0.000000e+00,7.400000e-01,0.000000e+00,-1.13051e-10,1.470856e-10,-3.59222e-11,1.887605e-12,
7.500000e-01,1.000000e+00,0.000000e+00,7.500000e-01,0.000000e+00,-1.13051e-10,1.488019e-10,-3.76484e-11,1.897605e-12,
7.600000e-01,1.000000e+00,0.000000e+00,7.600000e-01,0.000000e+00,-1.13051e-10,1.505905e-10,-3.94470e-11,1.907605e-12,
7.700000e-01,1.000000e+00,0.000000e+00,7.700000e-01,0.000000e+00,-1.13051e-10,1.524543e-10,-4.13208e-11,1.917605e-12,
7.800000e-01,1.000000e+00,0.000000e+00,7.800000e-01,0.000000e+00,-1.13051e-10,1.543960e-10,-4.32725e-11,1.927605e-12,
7.900000e-01,1.000000e+00,0.000000e+00,7.900000e-01,0.000000e+00,-1.13051e-10,1.564186e-10,-4.53051e-11,1.937604e-12,
8.000000e-01,1.000000e+00,0.000000e+00,8.000000e-01,0.000000e+00,-1.13051e-10,1.585251e-10,-4.74216e-11,1.947604e-12,
8.100000e-01,1.000000e+00,0.000000e+00,8.100000e-01,0.000000e+00,-1.13051e-10,1.607185e-10,-4.96251e-11,1.957604e-12,
8.200000e-01,1.000000e+00,0.000000e+00,8.200000e-01,0.000000e+00,-1.13051e-10,1.630022e-10,-5.19187e-11,1.967604e-12,
8.300000e-01,1.000000e+00,0.000000e+00,8.300000e-01,0.000000e+00,-1.13051e-10,1.653794e-10,-5.43060e-11,1.977604e-12,
8.400000e-01,1.000000e+00,0.000000e+00,8.400000e-01,0.000000e+00,-1.13051e-10,1.678537e-10,-5.67902e-11,1.987604e-12,
8.500000e-01,1.000000e+00,0.000000e+00,8.500000e-01,0.000000e+00,-1.13051e-10,1.704285e-10,-5.93750e-11,1.997604e-12,
8.600000e-01,1.000000e+00,0.000000e+00,8.600000e-01,0.000000e+00,-1.13051e-10,1.731076e-10,-6.20641e-11,2.007604e-12,
8.700000e-01,1.000000e+00,0.000000e+00,8.700000e-01,0.000000e+00,-1.13051e-10,1.758947e-10,-6.48612e-11,2.017604e-12,
8.800000e-01,1.000000e+00,0.000000e+00,8.800000e-01,0.000000e+00,-1.13051e-10,1.787939e-10,-6.77704e-11,2.027604e-12,
8.900000e-01,1.000000e+00,0.000000e+00,8.900000e-01,0.000000e+00,-1.13051e-10,1.818091e-10,-7.07957e-11,2.037604e-12,
9.000000e-01,1.000000e+00,0.000000e+00,9.000000e-01,0.000000e+00,-1.13051e-10,1.849447e-10,-7.39413e-11,2.047604e-12,
9.100000e-01,1.000000e+00,0.000000e+00,9.100000e-01,0.000000e+00,-1.13051e-10,1.882050e-10,-7.72115e-11,2.057604e-12,
9.200000e-01,1.000000e+00,0.000000e+00,9.200000e-01,0.000000e+00,-1.13051e-10,1.915945e-10,-8.06110e-11,2.067604e-12,
9.300000e-01,1.000000e+00,0.000000e+00,9.300000e-01,0.000000e+00,-1.13051e-10,1.951178e-10,-8.41443e-11,2.077604e-12,
9.400000e-01,1.000000e+00,0.000000e+00,9.400000e-01,0.000000e+00,-1.13051e-10,1.987798e-10,-8.78163e-11,2.087604e-12,
9.500000e-01,1.000000e+00,0.000000e+00,9.500000e-01,0.000000e+00,-1.13051e-10,2.025854e-10,-9.16319e-11,2.097604e-12,
9.600000e-01,1.000000e+00,0.000000e+00,9.600000e-01,0.000000e+00,-1.13051e-10,2.065398e-10,-9.55963e-11,2.107604e-12,
9.700000e-01,1.000000e+00,0.000000e+00,9.700000e-01,0.000000e+00,-1.13051e-10,2.106483e-10,-9.97149e-11,2.117604e-12,
9.800000e-01,1.000000e+00,0.000000e+00,9.800000e-01,0.000000e+00,-1.13051e-10,2.149165e-10,-1.03993e-10,2.127604e-12,
9.900000e-01,1.000000e+00,0.000000e+00,9.900000e-01,0.000000e+00,-1.13051e-10,2.193499e-10,-1.08436e-10,2.137604e-12,
1.000000e+00,1.000000e+00,0.000000e+00,1.000000e+00,0.000000e+00,-1.13051e-10,2.239545e-10,-1.13051e-10,2.147605e-12,
