Valim,Vd,Vg,Vs,Vb,Id,Ig,Is,Ib
0.000000e+00,1.000000e+00,1.000000e+00,0.000000e+00,0.000000e+00,-8.25255e-05,-1.93863e-10,8.252555e-05,1.415819e-10,
1.000000e-02,1.000000e+00,1.000000e+00,1.000000e-02,0.000000e+00,-8.06664e-05,-1.72083e-10,8.066645e-05,1.224776e-10,
2.000000e-02,1.000000e+00,1.000000e+00,2.000000e-02,0.000000e+00,-7.88103e-05,-1.52800e-10,7.881031e-05,1.057573e-10,
3.000000e-02,1.000000e+00,1.000000e+00,3.000000e-02,0.000000e+00,-7.69571e-05,-1.35754e-10,7.695718e-05,9.116576e-11,
4.000000e-02,1.000000e+00,1.000000e+00,4.000000e-02,0.000000e+00,-7.51071e-05,-1.20705e-10,7.510713e-05,7.846742e-11,
5.000000e-02,1.000000e+00,1.000000e+00,5.000000e-02,0.000000e+00,-7.32602e-05,-1.07432e-10,7.326023e-05,6.744624e-11,
6.000000e-02,1.000000e+00,1.000000e+00,6.000000e-02,0.000000e+00,-7.14165e-05,-9.57359e-11,7.141655e-05,5.790518e-11,
7.000000e-02,1.000000e+00,1.000000e+00,7.000000e-02,0.000000e+00,-6.95761e-05,-8.54330e-11,6.957617e-05,4.966553e-11,
8.000000e-02,1.000000e+00,1.000000e+00,8.000000e-02,0.000000e+00,-6.77391e-05,-7.63589e-11,6.773915e-05,4.256615e-11,
9.000000e-02,1.000000e+00,1.000000e+00,9.000000e-02,0.000000e+00,-6.59056e-05,-6.83662e-11,6.590560e-05,3.646248e-11,
1.000000e-01,1.000000e+00,1.000000e+00,1.000000e-01,0.000000e+00,-6.40756e-05,-6.13225e-11,6.407559e-05,3.122552e-11,
1.100000e-01,1.000000e+00,1.000000e+00,1.100000e-01,0.000000e+00,-6.22492e-05,-5.51097e-11,6.224924e-05,2.674075e-11,
1.200000e-01,1.000000e+00,1.000000e+00,1.200000e-01,0.000000e+00,-6.04266e-05,-4.96234e-11,6.042665e-05,2.290692e-11,
1.300000e-01,1.000000e+00,1.000000e+00,1.300000e-01,0.000000e+00,-5.86079e-05,-4.47731e-11,5.860793e-05,1.963496e-11,
1.400000e-01,1.000000e+00,1.000000e+00,1.400000e-01,0.000000e+00,-5.67932e-05,-4.04770e-11,5.679324e-05,1.684680e-11,
1.500000e-01,1.000000e+00,1.000000e+00,1.500000e-01,0.000000e+00,-5.49827e-05,-3.66644e-11,5.498271e-05,1.447430e-11,
1.600000e-01,1.000000e+00,1.000000e+00,1.600000e-01,0.000000e+00,-5.31765e-05,-3.32729e-11,5.317652e-05,1.245815e-11,
1.700000e-01,1.000000e+00,1.000000e+00,1.700000e-01,0.000000e+00,-5.13749e-05,-3.02491e-11,5.137487e-05,1.074696e-11,
1.800000e-01,1.000000e+00,1.000000e+00,1.800000e-01,0.000000e+00,-4.95780e-05,-2.75469e-11,4.957798e-05,9.296261e-12,
1.900000e-01,1.000000e+00,1.000000e+00,1.900000e-01,0.000000e+00,-4.77861e-05,-2.51243e-11,4.778610e-05,8.067745e-12,
2.000000e-01,1.000000e+00,1.000000e+00,2.000000e-01,0.000000e+00,-4.59995e-05,-2.29465e-11,4.599955e-05,7.028445e-12,
2.100000e-01,1.000000e+00,1.000000e+00,2.100000e-01,0.000000e+00,-4.42187e-05,-2.09837e-11,4.421868e-05,6.150078e-12,
2.200000e-01,1.000000e+00,1.000000e+00,2.200000e-01,0.000000e+00,-4.24439e-05,-1.92091e-11,4.244391e-05,5.408419e-12,
2.300000e-01,1.000000e+00,1.000000e+00,2.300000e-01,0.000000e+00,-4.06757e-05,-1.76001e-11,4.067572e-05,4.782765e-12,
2.400000e-01,1.000000e+00,1.000000e+00,2.400000e-01,0.000000e+00,-3.89147e-05,-1.61369e-11,3.891469e-05,4.255447e-12,
2.500000e-01,1.000000e+00,1.000000e+00,2.500000e-01,0.000000e+00,-3.71615e-05,-1.48033e-11,3.716152e-05,3.811411e-12,
2.600000e-01,1.000000e+00,1.000000e+00,2.600000e-01,0.000000e+00,-3.54170e-05,-1.35834e-11,3.541702e-05,3.437849e-12,
2.700000e-01,1.000000e+00,1.000000e+00,2.700000e-01,0.000000e+00,-3.36821e-05,-1.24656e-11,3.368214e-05,3.123877e-12,
2.800000e-01,1.000000e+00,1.000000e+00,2.800000e-01,0.000000e+00,-3.19580e-05,-1.14393e-11,3.195802e-05,2.860254e-12,
2.900000e-01,1.000000e+00,1.000000e+00,2.900000e-01,0.000000e+00,-3.02460e-05,-1.04943e-11,3.024601e-05,2.639149e-12,
3.000000e-01,1.000000e+00,1.000000e+00,3.000000e-01,0.000000e+00,-2.85477e-05,-9.62208e-12,2.854770e-05,2.453925e-12,
3.100000e-01,1.000000e+00,1.000000e+00,3.100000e-01,0.000000e+00,-2.68649e-05,-8.81695e-12,2.686493e-05,2.298967e-12,
3.200000e-01,1.000000e+00,1.000000e+00,3.200000e-01,0.000000e+00,-2.51999e-05,-8.07177e-12,2.519989e-05,2.169528e-12,
3.300000e-01,1.000000e+00,1.000000e+00,3.300000e-01,0.000000e+00,-2.35551e-05,-7.38165e-12,2.355510e-05,2.061595e-12,
3.400000e-01,1.000000e+00,1.000000e+00,3.400000e-01,0.000000e+00,-2.19335e-05,-6.74039e-12,2.193349e-05,1.971784e-12,
3.500000e-01,1.000000e+00,1.000000e+00,3.500000e-01,0.000000e+00,-2.03384e-05,-6.14619e-12,2.033842e-05,1.897239e-12,
3.600000e-01,1.000000e+00,1.000000e+00,3.600000e-01,0.000000e+00,-1.87737e-05,-5.59375e-12,1.877371e-05,1.835556e-12,
3.700000e-01,1.000000e+00,1.000000e+00,3.700000e-01,0.000000e+00,-1.72437e-05,-5.08082e-12,1.724367e-05,1.784712e-12,
3.800000e-01,1.000000e+00,1.000000e+00,3.800000e-01,0.000000e+00,-1.57531e-05,-4.60387e-12,1.575309e-05,1.743004e-12,
3.900000e-01,1.000000e+00,1.000000e+00,3.900000e-01,0.000000e+00,-1.43072e-05,-4.16112e-12,1.430724e-05,1.709007e-12,
4.000000e-01,1.000000e+00,1.000000e+00,4.000000e-01,0.000000e+00,-1.29118e-05,-3.75033e-12,1.291180e-05,1.681523e-12,
4.100000e-01,1.000000e+00,1.000000e+00,4.100000e-01,0.000000e+00,-1.15727e-05,-3.36930e-12,1.157274e-05,1.659552e-12,
4.200000e-01,1.000000e+00,1.000000e+00,4.200000e-01,0.000000e+00,-1.02962e-05,-3.01714e-12,1.029622e-05,1.642257e-12,
4.300000e-01,1.000000e+00,1.000000e+00,4.300000e-01,0.000000e+00,-9.08840e-06,-2.69162e-12,9.088399e-06,1.628941e-12,
4.400000e-01,1.000000e+00,1.000000e+00,4.400000e-01,0.000000e+00,-7.95512e-06,-2.39231e-12,7.955123e-06,1.619021e-12,
4.500000e-01,1.000000e+00,1.000000e+00,4.500000e-01,0.000000e+00,-6.90170e-06,-2.11831e-12,6.901698e-06,1.612011e-12,
4.600000e-01,1.000000e+00,1.000000e+00,4.600000e-01,0.000000e+00,-5.93253e-06,-1.86917e-12,5.932535e-06,1.607503e-12,
4.700000e-01,1.000000e+00,1.000000e+00,4.700000e-01,0.000000e+00,-5.05083e-06,-1.64491e-12,5.050834e-06,1.605156e-12,
4.800000e-01,1.000000e+00,1.000000e+00,4.800000e-01,0.000000e+00,-4.25829e-06,-1.44285e-12,4.258294e-06,1.604679e-12,
4.900000e-01,1.000000e+00,1.000000e+00,4.900000e-01,0.000000e+00,-3.55490e-06,-1.26477e-12,3.554898e-06,1.605823e-12,
5.000000e-01,1.000000e+00,1.000000e+00,5.000000e-01,0.000000e+00,-2.93881e-06,-1.10845e-12,2.938810e-06,1.608374e-12,
5.100000e-01,1.000000e+00,1.000000e+00,5.100000e-01,0.000000e+00,-2.40641e-06,-9.72999e-13,2.406408e-06,1.612141e-12,
5.200000e-01,1.000000e+00,1.000000e+00,5.200000e-01,0.000000e+00,-1.95247e-06,-8.56648e-13,1.952473e-06,1.616959e-12,
5.300000e-01,1.000000e+00,1.000000e+00,5.300000e-01,0.000000e+00,-1.57050e-06,-7.57172e-13,1.570500e-06,1.622677e-12,
5.400000e-01,1.000000e+00,1.000000e+00,5.400000e-01,0.000000e+00,-1.25310e-06,-6.72351e-13,1.253098e-06,1.629163e-12,
5.500000e-01,1.000000e+00,1.000000e+00,5.500000e-01,0.000000e+00,-9.92442e-07,-5.99965e-13,9.924409e-07,1.636299e-12,
5.600000e-01,1.000000e+00,1.000000e+00,5.600000e-01,0.000000e+00,-7.80682e-07,-5.37792e-13,7.806806e-07,1.643979e-12,
5.700000e-01,1.000000e+00,1.000000e+00,5.700000e-01,0.000000e+00,-6.10310e-07,-4.84501e-13,6.103093e-07,1.652113e-12,
5.800000e-01,1.000000e+00,1.000000e+00,5.800000e-01,0.000000e+00,-4.74420e-07,-4.37872e-13,4.744183e-07,1.660622e-12,
5.900000e-01,1.000000e+00,1.000000e+00,5.900000e-01,0.000000e+00,-3.66858e-07,-3.96572e-13,3.668567e-07,1.669437e-12,
6.000000e-01,1.000000e+00,1.000000e+00,6.000000e-01,0.000000e+00,-2.82298e-07,-3.59712e-13,2.822965e-07,1.678501e-12,
6.100000e-01,1.000000e+00,1.000000e+00,6.100000e-01,0.000000e+00,-2.16227e-07,-3.27738e-13,2.162252e-07,1.687767e-12,
6.200000e-01,1.000000e+00,1.000000e+00,6.200000e-01,0.000000e+00,-1.64890e-07,-2.97540e-13,1.648890e-07,1.697194e-12,
6.300000e-01,1.000000e+00,1.000000e+00,6.300000e-01,0.000000e+00,-1.25212e-07,-2.70450e-13,1.252102e-07,1.706750e-12,
6.400000e-01,1.000000e+00,1.000000e+00,6.400000e-01,0.000000e+00,-9.46953e-08,-2.45581e-13,9.469384e-08,1.716407e-12,
6.500000e-01,1.000000e+00,1.000000e+00,6.500000e-01,0.000000e+00,-7.13376e-08,-2.22489e-13,7.133605e-08,1.726144e-12,
6.600000e-01,1.000000e+00,1.000000e+00,6.600000e-01,0.000000e+00,-5.35414e-08,-2.01617e-13,5.353982e-08,1.735943e-12,
6.700000e-01,1.000000e+00,1.000000e+00,6.700000e-01,0.000000e+00,-4.00427e-08,-1.82521e-13,4.004110e-08,1.745791e-12,
6.800000e-01,1.000000e+00,1.000000e+00,6.800000e-01,0.000000e+00,-2.98473e-08,-1.64313e-13,2.984574e-08,1.755675e-12,
6.900000e-01,1.000000e+00,1.000000e+00,6.900000e-01,0.000000e+00,-2.21783e-08,-1.48326e-13,2.217668e-08,1.765589e-12,
7.000000e-01,1.000000e+00,1.000000e+00,7.000000e-01,0.000000e+00,-1.64318e-08,-1.32783e-13,1.643013e-08,1.775524e-12,
7.100000e-01,1.000000e+00,1.000000e+00,7.100000e-01,0.000000e+00,-1.21414e-08,-1.19460e-13,1.213974e-08,1.785475e-12,
7.200000e-01,1.000000e+00,1.000000e+00,7.200000e-01,0.000000e+00,-8.94900e-09,-1.06581e-13,8.947311e-09,1.795439e-12,
7.300000e-01,1.000000e+00,1.000000e+00,7.300000e-01,0.000000e+00,-6.58099e-09,-9.50351e-14,6.579279e-09,1.805412e-12,
7.400000e-01,1.000000e+00,1.000000e+00,7.400000e-01,0.000000e+00,-4.82953e-09,-8.43769e-14,4.827800e-09,1.815392e-12,
7.500000e-01,1.000000e+00,1.000000e+00,7.500000e-01,0.000000e+00,-3.53750e-09,-7.41629e-14,3.535751e-09,1.825378e-12,
7.600000e-01,1.000000e+00,1.000000e+00,7.600000e-01,0.000000e+00,-2.58668e-09,-6.52811e-14,2.584905e-09,1.835367e-12,
7.700000e-01,1.000000e+00,1.000000e+00,7.700000e-01,0.000000e+00,-1.88847e-09,-5.72875e-14,1.886683e-09,1.845359e-12,
7.800000e-01,1.000000e+00,1.000000e+00,7.800000e-01,0.000000e+00,-1.37679e-09,-5.01821e-14,1.374981e-09,1.855353e-12,
7.900000e-01,1.000000e+00,1.000000e+00,7.900000e-01,0.000000e+00,-1.00247e-09,-4.35207e-14,1.000647e-09,1.865349e-12,
8.000000e-01,1.000000e+00,1.000000e+00,8.000000e-01,0.000000e+00,-7.29085e-10,-3.81917e-14,7.272476e-10,1.875345e-12,
8.100000e-01,1.000000e+00,1.000000e+00,8.100000e-01,0.000000e+00,-5.29715e-10,-3.28626e-14,5.278625e-10,1.885343e-12,
8.200000e-01,1.000000e+00,1.000000e+00,8.200000e-01,0.000000e+00,-3.84516e-10,-2.84217e-14,3.826493e-10,1.895341e-12,
8.300000e-01,1.000000e+00,1.000000e+00,8.300000e-01,0.000000e+00,-2.78899e-10,-2.53131e-14,2.770188e-10,1.905340e-12,
8.400000e-01,1.000000e+00,1.000000e+00,8.400000e-01,0.000000e+00,-2.02159e-10,-2.39808e-14,2.002678e-10,1.915339e-12,
8.500000e-01,1.000000e+00,1.000000e+00,8.500000e-01,0.000000e+00,-1.46459e-10,-2.48690e-14,1.445585e-10,1.925338e-12,
8.600000e-01,1.000000e+00,1.000000e+00,8.600000e-01,0.000000e+00,-1.06067e-10,-2.75335e-14,1.041586e-10,1.935337e-12,
8.700000e-01,1.000000e+00,1.000000e+00,8.700000e-01,0.000000e+00,-7.68002e-11,-2.97540e-14,7.488442e-11,1.945337e-12,
8.800000e-01,1.000000e+00,1.000000e+00,8.800000e-01,0.000000e+00,-5.56106e-11,-3.15303e-14,5.368673e-11,1.955336e-12,
8.900000e-01,1.000000e+00,1.000000e+00,8.900000e-01,0.000000e+00,-4.02776e-11,-3.33067e-14,3.834541e-11,1.965336e-12,
9.000000e-01,1.000000e+00,1.000000e+00,9.000000e-01,0.000000e+00,-2.91864e-11,-3.46390e-14,2.724558e-11,1.975335e-12,
9.100000e-01,1.000000e+00,1.000000e+00,9.100000e-01,0.000000e+00,-2.11632e-11,-3.50830e-14,1.921333e-11,1.985335e-12,
9.200000e-01,1.000000e+00,1.000000e+00,9.200000e-01,0.000000e+00,-1.53550e-11,-3.59712e-14,1.339566e-11,1.995335e-12,
9.300000e-01,1.000000e+00,1.000000e+00,9.300000e-01,0.000000e+00,-1.11422e-11,-3.59712e-14,9.172894e-12,2.005335e-12,
9.400000e-01,1.000000e+00,1.000000e+00,9.400000e-01,0.000000e+00,-8.07525e-12,-3.59712e-14,6.095533e-12,2.015334e-12,
9.500000e-01,1.000000e+00,1.000000e+00,9.500000e-01,0.000000e+00,-5.83046e-12,-3.46390e-14,3.839807e-12,2.025334e-12,
9.600000e-01,1.000000e+00,1.000000e+00,9.600000e-01,0.000000e+00,-4.17912e-12,-3.33067e-14,2.176969e-12,2.035334e-12,
9.700000e-01,1.000000e+00,1.000000e+00,9.700000e-01,0.000000e+00,-2.96457e-12,-3.10862e-14,9.503222e-13,2.045334e-12,
9.800000e-01,1.000000e+00,1.000000e+00,9.800000e-01,0.000000e+00,-2.08109e-12,-2.84217e-14,5.411040e-14,2.055334e-12,
9.900000e-01,1.000000e+00,1.000000e+00,9.900000e-01,0.000000e+00,-1.45433e-12,-2.48690e-14,-5.86066e-13,2.065333e-12,
1.000000e+00,1.000000e+00,1.000000e+00,1.000000e+00,0.000000e+00,-1.02727e-12,-2.08722e-14,-1.02727e-12,2.075333e-12,
