Valim,Vd,Vg,Vs,Vb,Id,Ig,Is,Ib
0.000000e+00,1.000000e+00,1.000000e+00,0.000000e+00,0.000000e+00,-3.58236e-05,-7.90905e-11,3.582358e-05,5.829494e-11,
1.000000e-02,1.000000e+00,1.000000e+00,1.000000e-02,0.000000e+00,-3.50039e-05,-7.02087e-11,3.500392e-05,5.051826e-11,
2.000000e-02,1.000000e+00,1.000000e+00,2.000000e-02,0.000000e+00,-3.41858e-05,-6.23448e-11,3.418579e-05,4.371253e-11,
3.000000e-02,1.000000e+00,1.000000e+00,3.000000e-02,0.000000e+00,-3.33692e-05,-5.53939e-11,3.336923e-05,3.777383e-11,
4.000000e-02,1.000000e+00,1.000000e+00,4.000000e-02,0.000000e+00,-3.25542e-05,-4.92557e-11,3.255427e-05,3.260627e-11,
5.000000e-02,1.000000e+00,1.000000e+00,5.000000e-02,0.000000e+00,-3.17409e-05,-4.38423e-11,3.174094e-05,2.812187e-11,
6.000000e-02,1.000000e+00,1.000000e+00,6.000000e-02,0.000000e+00,-3.09293e-05,-3.90710e-11,3.092928e-05,2.424039e-11,
7.000000e-02,1.000000e+00,1.000000e+00,7.000000e-02,0.000000e+00,-3.01193e-05,-3.48681e-11,3.011934e-05,2.088907e-11,
8.000000e-02,1.000000e+00,1.000000e+00,8.000000e-02,0.000000e+00,-2.93111e-05,-3.11662e-11,2.931116e-05,1.800226e-11,
9.000000e-02,1.000000e+00,1.000000e+00,9.000000e-02,0.000000e+00,-2.85048e-05,-2.79048e-11,2.850478e-05,1.552108e-11,
1.000000e-01,1.000000e+00,1.000000e+00,1.000000e-01,0.000000e+00,-2.77002e-05,-2.50306e-11,2.770025e-05,1.339300e-11,
1.100000e-01,1.000000e+00,1.000000e+00,1.100000e-01,0.000000e+00,-2.68976e-05,-2.24958e-11,2.689764e-05,1.157135e-11,
1.200000e-01,1.000000e+00,1.000000e+00,1.200000e-01,0.000000e+00,-2.60970e-05,-2.02576e-11,2.609700e-05,1.001490e-11,
1.300000e-01,1.000000e+00,1.000000e+00,1.300000e-01,0.000000e+00,-2.52984e-05,-1.82760e-11,2.529839e-05,8.687354e-12,
1.400000e-01,1.000000e+00,1.000000e+00,1.400000e-01,0.000000e+00,-2.45019e-05,-1.65237e-11,2.450189e-05,7.556920e-12,
1.500000e-01,1.000000e+00,1.000000e+00,1.500000e-01,0.000000e+00,-2.37076e-05,-1.49667e-11,2.370758e-05,6.595831e-12,
1.600000e-01,1.000000e+00,1.000000e+00,1.600000e-01,0.000000e+00,-2.29155e-05,-1.35829e-11,2.291554e-05,5.779933e-12,
1.700000e-01,1.000000e+00,1.000000e+00,1.700000e-01,0.000000e+00,-2.21259e-05,-1.23483e-11,2.212589e-05,5.088282e-12,
1.800000e-01,1.000000e+00,1.000000e+00,1.800000e-01,0.000000e+00,-2.13387e-05,-1.12443e-11,2.133874e-05,4.502771e-12,
1.900000e-01,1.000000e+00,1.000000e+00,1.900000e-01,0.000000e+00,-2.05542e-05,-1.02549e-11,2.055421e-05,4.007785e-12,
2.000000e-01,1.000000e+00,1.000000e+00,2.000000e-01,0.000000e+00,-1.97725e-05,-9.36673e-12,1.977246e-05,3.589898e-12,
2.100000e-01,1.000000e+00,1.000000e+00,2.100000e-01,0.000000e+00,-1.89937e-05,-8.56470e-12,1.899368e-05,3.237586e-12,
2.200000e-01,1.000000e+00,1.000000e+00,2.200000e-01,0.000000e+00,-1.82181e-05,-7.83906e-12,1.821806e-05,2.940980e-12,
2.300000e-01,1.000000e+00,1.000000e+00,2.300000e-01,0.000000e+00,-1.74458e-05,-7.18181e-12,1.744584e-05,2.691647e-12,
2.400000e-01,1.000000e+00,1.000000e+00,2.400000e-01,0.000000e+00,-1.66773e-05,-6.58673e-12,1.667730e-05,2.482387e-12,
2.500000e-01,1.000000e+00,1.000000e+00,2.500000e-01,0.000000e+00,-1.59128e-05,-6.04139e-12,1.591277e-05,2.307068e-12,
2.600000e-01,1.000000e+00,1.000000e+00,2.600000e-01,0.000000e+00,-1.51526e-05,-5.54312e-12,1.515264e-05,2.160471e-12,
2.700000e-01,1.000000e+00,1.000000e+00,2.700000e-01,0.000000e+00,-1.43973e-05,-5.08660e-12,1.439735e-05,2.038164e-12,
2.800000e-01,1.000000e+00,1.000000e+00,2.800000e-01,0.000000e+00,-1.36474e-05,-4.66738e-12,1.364742e-05,1.936381e-12,
2.900000e-01,1.000000e+00,1.000000e+00,2.900000e-01,0.000000e+00,-1.29035e-05,-4.28102e-12,1.290349e-05,1.851931e-12,
3.000000e-01,1.000000e+00,1.000000e+00,3.000000e-01,0.000000e+00,-1.21663e-05,-3.92575e-12,1.216627e-05,1.782112e-12,
3.100000e-01,1.000000e+00,1.000000e+00,3.100000e-01,0.000000e+00,-1.14366e-05,-3.59623e-12,1.143660e-05,1.724636e-12,
3.200000e-01,1.000000e+00,1.000000e+00,3.200000e-01,0.000000e+00,-1.07155e-05,-3.29159e-12,1.071546e-05,1.677568e-12,
3.300000e-01,1.000000e+00,1.000000e+00,3.300000e-01,0.000000e+00,-1.00040e-05,-3.00915e-12,1.000400e-05,1.639275e-12,
3.400000e-01,1.000000e+00,1.000000e+00,3.400000e-01,0.000000e+00,-9.30350e-06,-2.74891e-12,9.303497e-06,1.608378e-12,
3.500000e-01,1.000000e+00,1.000000e+00,3.500000e-01,0.000000e+00,-8.61545e-06,-2.50555e-12,8.615450e-06,1.583715e-12,
3.600000e-01,1.000000e+00,1.000000e+00,3.600000e-01,0.000000e+00,-7.94153e-06,-2.28084e-12,7.941536e-06,1.564304e-12,
3.700000e-01,1.000000e+00,1.000000e+00,3.700000e-01,0.000000e+00,-7.28363e-06,-2.07034e-12,7.283634e-06,1.549323e-12,
3.800000e-01,1.000000e+00,1.000000e+00,3.800000e-01,0.000000e+00,-6.64382e-06,-1.87672e-12,6.643825e-06,1.538079e-12,
3.900000e-01,1.000000e+00,1.000000e+00,3.900000e-01,0.000000e+00,-6.02437e-06,-1.69642e-12,6.024374e-06,1.529990e-12,
4.000000e-01,1.000000e+00,1.000000e+00,4.000000e-01,0.000000e+00,-5.42770e-06,-1.52856e-12,5.427704e-06,1.524569e-12,
4.100000e-01,1.000000e+00,1.000000e+00,4.100000e-01,0.000000e+00,-4.85635e-06,-1.37401e-12,4.856353e-06,1.521409e-12,
4.200000e-01,1.000000e+00,1.000000e+00,4.200000e-01,0.000000e+00,-4.31291e-06,-1.22924e-12,4.312907e-06,1.520168e-12,
4.300000e-01,1.000000e+00,1.000000e+00,4.300000e-01,0.000000e+00,-3.79991e-06,-1.09779e-12,3.799912e-06,1.520563e-12,
4.400000e-01,1.000000e+00,1.000000e+00,4.400000e-01,0.000000e+00,-3.31977e-06,-9.75220e-13,3.319766e-06,1.522355e-12,
4.500000e-01,1.000000e+00,1.000000e+00,4.500000e-01,0.000000e+00,-2.87460e-06,-8.63309e-13,2.874596e-06,1.525346e-12,
4.600000e-01,1.000000e+00,1.000000e+00,4.600000e-01,0.000000e+00,-2.46612e-06,-7.61169e-13,2.466119e-06,1.529369e-12,
4.700000e-01,1.000000e+00,1.000000e+00,4.700000e-01,0.000000e+00,-2.09551e-06,-6.70575e-13,2.095513e-06,1.534284e-12,
4.800000e-01,1.000000e+00,1.000000e+00,4.800000e-01,0.000000e+00,-1.76330e-06,-5.87974e-13,1.763299e-06,1.539971e-12,
4.900000e-01,1.000000e+00,1.000000e+00,4.900000e-01,0.000000e+00,-1.46927e-06,-5.15143e-13,1.469264e-06,1.546328e-12,
5.000000e-01,1.000000e+00,1.000000e+00,5.000000e-01,0.000000e+00,-1.21243e-06,-4.51195e-13,1.212427e-06,1.553267e-12,
5.100000e-01,1.000000e+00,1.000000e+00,5.100000e-01,0.000000e+00,-9.91069e-07,-3.97016e-13,9.910681e-07,1.560707e-12,
5.200000e-01,1.000000e+00,1.000000e+00,5.200000e-01,0.000000e+00,-8.02819e-07,-3.49054e-13,8.028175e-07,1.568581e-12,
5.300000e-01,1.000000e+00,1.000000e+00,5.300000e-01,0.000000e+00,-6.44796e-07,-3.09086e-13,6.447947e-07,1.576826e-12,
5.400000e-01,1.000000e+00,1.000000e+00,5.400000e-01,0.000000e+00,-5.13785e-07,-2.74447e-13,5.137837e-07,1.585387e-12,
5.500000e-01,1.000000e+00,1.000000e+00,5.500000e-01,0.000000e+00,-4.06420e-07,-2.45137e-13,4.064190e-07,1.594215e-12,
5.600000e-01,1.000000e+00,1.000000e+00,5.600000e-01,0.000000e+00,-3.19361e-07,-2.19380e-13,3.193600e-07,1.603266e-12,
5.700000e-01,1.000000e+00,1.000000e+00,5.700000e-01,0.000000e+00,-2.49436e-07,-1.97176e-13,2.494349e-07,1.612504e-12,
5.800000e-01,1.000000e+00,1.000000e+00,5.800000e-01,0.000000e+00,-1.93745e-07,-1.78524e-13,1.937438e-07,1.621895e-12,
5.900000e-01,1.000000e+00,1.000000e+00,5.900000e-01,0.000000e+00,-1.49720e-07,-1.61648e-13,1.497190e-07,1.631412e-12,
6.000000e-01,1.000000e+00,1.000000e+00,6.000000e-01,0.000000e+00,-1.15148e-07,-1.46549e-13,1.151460e-07,1.641030e-12,
6.100000e-01,1.000000e+00,1.000000e+00,6.100000e-01,0.000000e+00,-8.81584e-08,-1.34115e-13,8.815684e-08,1.650731e-12,
6.200000e-01,1.000000e+00,1.000000e+00,6.200000e-01,0.000000e+00,-6.72040e-08,-1.20792e-13,6.720243e-08,1.660497e-12,
6.300000e-01,1.000000e+00,1.000000e+00,6.300000e-01,0.000000e+00,-5.10177e-08,-1.10134e-13,5.101618e-08,1.670316e-12,
6.400000e-01,1.000000e+00,1.000000e+00,6.400000e-01,0.000000e+00,-3.85752e-08,-1.00364e-13,3.857366e-08,1.680176e-12,
6.500000e-01,1.000000e+00,1.000000e+00,6.500000e-01,0.000000e+00,-2.90552e-08,-9.05942e-14,2.905360e-08,1.690069e-12,
6.600000e-01,1.000000e+00,1.000000e+00,6.600000e-01,0.000000e+00,-2.18041e-08,-8.26006e-14,2.180250e-08,1.699987e-12,
6.700000e-01,1.000000e+00,1.000000e+00,6.700000e-01,0.000000e+00,-1.63054e-08,-7.46070e-14,1.630373e-08,1.709925e-12,
6.800000e-01,1.000000e+00,1.000000e+00,6.800000e-01,0.000000e+00,-1.21530e-08,-6.66134e-14,1.215135e-08,1.719878e-12,
6.900000e-01,1.000000e+00,1.000000e+00,6.900000e-01,0.000000e+00,-9.02999e-09,-6.03961e-14,9.028318e-09,1.729843e-12,
7.000000e-01,1.000000e+00,1.000000e+00,7.000000e-01,0.000000e+00,-6.69011e-09,-5.41789e-14,6.688429e-09,1.739816e-12,
7.100000e-01,1.000000e+00,1.000000e+00,7.100000e-01,0.000000e+00,-4.94330e-09,-4.88498e-14,4.941595e-09,1.749797e-12,
7.200000e-01,1.000000e+00,1.000000e+00,7.200000e-01,0.000000e+00,-3.64359e-09,-4.35207e-14,3.641874e-09,1.759782e-12,
7.300000e-01,1.000000e+00,1.000000e+00,7.300000e-01,0.000000e+00,-2.67956e-09,-3.81917e-14,2.677828e-09,1.769771e-12,
7.400000e-01,1.000000e+00,1.000000e+00,7.400000e-01,0.000000e+00,-1.96655e-09,-3.46390e-14,1.964808e-09,1.779763e-12,
7.500000e-01,1.000000e+00,1.000000e+00,7.500000e-01,0.000000e+00,-1.44059e-09,-3.01981e-14,1.438832e-09,1.789757e-12,
7.600000e-01,1.000000e+00,1.000000e+00,7.600000e-01,0.000000e+00,-1.05353e-09,-2.66454e-14,1.051760e-09,1.799752e-12,
7.700000e-01,1.000000e+00,1.000000e+00,7.700000e-01,0.000000e+00,-7.69316e-10,-2.30926e-14,7.675297e-10,1.809749e-12,
7.800000e-01,1.000000e+00,1.000000e+00,7.800000e-01,0.000000e+00,-5.61027e-10,-2.04281e-14,5.592281e-10,1.819747e-12,
7.900000e-01,1.000000e+00,1.000000e+00,7.900000e-01,0.000000e+00,-4.08657e-10,-1.86517e-14,4.068448e-10,1.829745e-12,
8.000000e-01,1.000000e+00,1.000000e+00,8.000000e-01,0.000000e+00,-2.97374e-10,-1.50990e-14,2.955493e-10,1.839744e-12,
8.100000e-01,1.000000e+00,1.000000e+00,8.100000e-01,0.000000e+00,-2.16219e-10,-1.42109e-14,2.143822e-10,1.849743e-12,
8.200000e-01,1.000000e+00,1.000000e+00,8.200000e-01,0.000000e+00,-1.57115e-10,-1.15463e-14,1.552665e-10,1.859742e-12,
8.300000e-01,1.000000e+00,1.000000e+00,8.300000e-01,0.000000e+00,-1.14123e-10,-9.76996e-15,1.122633e-10,1.869741e-12,
8.400000e-01,1.000000e+00,1.000000e+00,8.400000e-01,0.000000e+00,-8.28857e-11,-8.88178e-15,8.101568e-11,1.879741e-12,
8.500000e-01,1.000000e+00,1.000000e+00,8.500000e-01,0.000000e+00,-6.02127e-11,-9.76996e-15,5.833320e-11,1.889741e-12,
8.600000e-01,1.000000e+00,1.000000e+00,8.600000e-01,0.000000e+00,-4.37711e-11,-1.06581e-14,4.188251e-11,1.899740e-12,
8.700000e-01,1.000000e+00,1.000000e+00,8.700000e-01,0.000000e+00,-3.18583e-11,-1.15463e-14,2.996059e-11,1.909740e-12,
8.800000e-01,1.000000e+00,1.000000e+00,8.800000e-01,0.000000e+00,-2.32331e-11,-1.33227e-14,2.132622e-11,1.919740e-12,
8.900000e-01,1.000000e+00,1.000000e+00,8.900000e-01,0.000000e+00,-1.69919e-11,-1.33227e-14,1.507570e-11,1.929740e-12,
9.000000e-01,1.000000e+00,1.000000e+00,9.000000e-01,0.000000e+00,-1.24774e-11,-1.42109e-14,1.055167e-11,1.939740e-12,
9.100000e-01,1.000000e+00,1.000000e+00,9.100000e-01,0.000000e+00,-9.21161e-12,-1.50990e-14,7.276314e-12,1.949739e-12,
9.200000e-01,1.000000e+00,1.000000e+00,9.200000e-01,0.000000e+00,-6.84749e-12,-1.50990e-14,4.902402e-12,1.959739e-12,
9.300000e-01,1.000000e+00,1.000000e+00,9.300000e-01,0.000000e+00,-5.13275e-12,-1.42109e-14,3.177695e-12,1.969739e-12,
9.400000e-01,1.000000e+00,1.000000e+00,9.400000e-01,0.000000e+00,-3.88446e-12,-1.50990e-14,1.919227e-12,1.979739e-12,
9.500000e-01,1.000000e+00,1.000000e+00,9.500000e-01,0.000000e+00,-2.97081e-12,-1.33227e-14,9.951979e-13,1.989739e-12,
9.600000e-01,1.000000e+00,1.000000e+00,9.600000e-01,0.000000e+00,-2.29870e-12,-1.33227e-14,3.124812e-13,1.999739e-12,
9.700000e-01,1.000000e+00,1.000000e+00,9.700000e-01,0.000000e+00,-1.80435e-12,-1.24345e-14,-1.92721e-13,2.009739e-12,
9.800000e-01,1.000000e+00,1.000000e+00,9.800000e-01,0.000000e+00,-1.44473e-12,-1.06581e-14,-5.63462e-13,2.019739e-12,
9.900000e-01,1.000000e+00,1.000000e+00,9.900000e-01,0.000000e+00,-1.18955e-12,-1.06581e-14,-8.30025e-13,2.029739e-12,
1.000000e+00,1.000000e+00,1.000000e+00,1.000000e+00,0.000000e+00,-1.01563e-12,-8.88178e-15,-1.01563e-12,2.039739e-12,
