Valim,Vd,Vg,Vs,Vb,Id,Ig,Is,Ib
0.000000e+00,0.000000e+00,0.000000e+00,0.000000e+00,1.000000e+00,1.027266e-12,1.042513e-14,1.027266e-12,-2.06496e-12,
1.000000e-02,0.000000e+00,0.000000e+00,1.000000e-02,1.000000e+00,1.079238e-12,1.042529e-14,9.652950e-13,-2.05502e-12,
2.000000e-02,0.000000e+00,0.000000e+00,2.000000e-02,1.000000e+00,1.161026e-12,1.042544e-14,8.735072e-13,-2.04500e-12,
3.000000e-02,0.000000e+00,0.000000e+00,3.000000e-02,1.000000e+00,1.283850e-12,1.042558e-14,7.406828e-13,-2.03501e-12,
4.000000e-02,0.000000e+00,0.000000e+00,4.000000e-02,1.000000e+00,1.462561e-12,1.042572e-14,5.519713e-13,-2.02502e-12,
5.000000e-02,0.000000e+00,0.000000e+00,5.000000e-02,1.000000e+00,1.717644e-12,1.042584e-14,2.868887e-13,-2.01500e-12,
6.000000e-02,0.000000e+00,0.000000e+00,6.000000e-02,1.000000e+00,2.078616e-12,1.042596e-14,-8.40837e-14,-2.00504e-12,
7.000000e-02,0.000000e+00,0.000000e+00,7.000000e-02,1.000000e+00,2.588819e-12,1.042608e-14,-6.04287e-13,-1.99502e-12,
8.000000e-02,0.000000e+00,0.000000e+00,8.000000e-02,1.000000e+00,3.311443e-12,1.042620e-14,-1.33691e-12,-1.98500e-12,
9.000000e-02,0.000000e+00,0.000000e+00,9.000000e-02,1.000000e+00,4.337341e-12,1.042632e-14,-2.37281e-12,-1.97503e-12,
1.000000e-01,0.000000e+00,0.000000e+00,1.000000e-01,1.000000e+00,5.795968e-12,1.042644e-14,-3.84144e-12,-1.96501e-12,
1.100000e-01,0.000000e+00,0.000000e+00,1.100000e-01,1.000000e+00,7.871062e-12,1.042657e-14,-5.92653e-12,-1.95505e-12,
1.200000e-01,0.000000e+00,0.000000e+00,1.200000e-01,1.000000e+00,1.082303e-11,1.042672e-14,-8.88849e-12,-1.94503e-12,
1.300000e-01,0.000000e+00,0.000000e+00,1.300000e-01,1.000000e+00,1.502060e-11,1.042690e-14,-1.30961e-11,-1.93498e-12,
1.400000e-01,0.000000e+00,0.000000e+00,1.400000e-01,1.000000e+00,2.098543e-11,1.042711e-14,-1.90709e-11,-1.92502e-12,
1.500000e-01,0.000000e+00,0.000000e+00,1.500000e-01,1.000000e+00,2.945474e-11,1.042738e-14,-2.75502e-11,-1.91500e-12,
1.600000e-01,0.000000e+00,0.000000e+00,1.600000e-01,1.000000e+00,4.146907e-11,1.042774e-14,-3.95745e-11,-1.90500e-12,
1.700000e-01,0.000000e+00,0.000000e+00,1.700000e-01,1.000000e+00,5.849495e-11,1.042823e-14,-5.66104e-11,-1.89501e-12,
1.800000e-01,0.000000e+00,0.000000e+00,1.800000e-01,1.000000e+00,8.259592e-11,1.042890e-14,-8.07214e-11,-1.88505e-12,
1.900000e-01,0.000000e+00,0.000000e+00,1.900000e-01,1.000000e+00,1.166702e-10,1.042979e-14,-1.14806e-10,-1.87500e-12,
2.000000e-01,0.000000e+00,0.000000e+00,2.000000e-01,1.000000e+00,1.647800e-10,1.043097e-14,-1.62925e-10,-1.86506e-12,
2.100000e-01,0.000000e+00,0.000000e+00,2.100000e-01,1.000000e+00,2.326054e-10,1.043256e-14,-2.30761e-10,-1.85504e-12,
2.200000e-01,0.000000e+00,0.000000e+00,2.200000e-01,1.000000e+00,3.280685e-10,1.043470e-14,-3.26234e-10,-1.84502e-12,
2.300000e-01,0.000000e+00,0.000000e+00,2.300000e-01,1.000000e+00,4.621859e-10,1.043762e-14,-4.60361e-10,-1.83503e-12,
2.400000e-01,0.000000e+00,0.000000e+00,2.400000e-01,1.000000e+00,6.502279e-10,1.044159e-14,-6.48413e-10,-1.82496e-12,
2.500000e-01,0.000000e+00,0.000000e+00,2.500000e-01,1.000000e+00,9.132857e-10,1.044702e-14,-9.11481e-10,-1.81496e-12,
2.600000e-01,0.000000e+00,0.000000e+00,2.600000e-01,1.000000e+00,1.280376e-09,1.045441e-14,-1.27858e-09,-1.80506e-12,
2.700000e-01,0.000000e+00,0.000000e+00,2.700000e-01,1.000000e+00,1.791249e-09,1.046450e-14,-1.78946e-09,-1.79498e-12,
2.800000e-01,0.000000e+00,0.000000e+00,2.800000e-01,1.000000e+00,2.500113e-09,1.047824e-14,-2.49834e-09,-1.78510e-12,
2.900000e-01,0.000000e+00,0.000000e+00,2.900000e-01,1.000000e+00,3.480534e-09,1.049689e-14,-3.47877e-09,-1.77508e-12,
3.000000e-01,0.000000e+00,0.000000e+00,3.000000e-01,1.000000e+00,4.831852e-09,1.052213e-14,-4.83010e-09,-1.76512e-12,
3.100000e-01,0.000000e+00,0.000000e+00,3.100000e-01,1.000000e+00,6.687528e-09,1.055615e-14,-6.68578e-09,-1.75512e-12,
3.200000e-01,0.000000e+00,0.000000e+00,3.200000e-01,1.000000e+00,9.225962e-09,1.060179e-14,-9.22423e-09,-1.74513e-12,
3.300000e-01,0.000000e+00,0.000000e+00,3.300000e-01,1.000000e+00,1.268444e-08,1.066269e-14,-1.26827e-08,-1.73531e-12,
3.400000e-01,0.000000e+00,0.000000e+00,3.400000e-01,1.000000e+00,1.737708e-08,1.074349e-14,-1.73754e-08,-1.72540e-12,
3.500000e-01,0.000000e+00,0.000000e+00,3.500000e-01,1.000000e+00,2.371777e-08,1.084999e-14,-2.37161e-08,-1.71557e-12,
3.600000e-01,0.000000e+00,0.000000e+00,3.600000e-01,1.000000e+00,3.224926e-08,1.098943e-14,-3.22476e-08,-1.70569e-12,
3.700000e-01,0.000000e+00,0.000000e+00,3.700000e-01,1.000000e+00,4.367965e-08,1.117072e-14,-4.36780e-08,-1.69589e-12,
3.800000e-01,0.000000e+00,0.000000e+00,3.800000e-01,1.000000e+00,5.892683e-08,1.140475e-14,-5.89252e-08,-1.68621e-12,
3.900000e-01,0.000000e+00,0.000000e+00,3.900000e-01,1.000000e+00,7.917091e-08,1.170471e-14,-7.91692e-08,-1.67655e-12,
4.000000e-01,0.000000e+00,0.000000e+00,4.000000e-01,1.000000e+00,1.059124e-07,1.208650e-14,-1.05911e-07,-1.66700e-12,
4.100000e-01,0.000000e+00,0.000000e+00,4.100000e-01,1.000000e+00,1.410311e-07,1.256922e-14,-1.41029e-07,-1.65767e-12,
4.200000e-01,0.000000e+00,0.000000e+00,4.200000e-01,1.000000e+00,1.868380e-07,1.317575e-14,-1.86836e-07,-1.64835e-12,
4.300000e-01,0.000000e+00,0.000000e+00,4.300000e-01,1.000000e+00,2.461065e-07,1.393350e-14,-2.46105e-07,-1.63936e-12,
4.400000e-01,0.000000e+00,0.000000e+00,4.400000e-01,1.000000e+00,3.220705e-07,1.487538e-14,-3.22069e-07,-1.63064e-12,
4.500000e-01,0.000000e+00,0.000000e+00,4.500000e-01,1.000000e+00,4.183760e-07,1.604094e-14,-4.18374e-07,-1.62215e-12,
4.600000e-01,0.000000e+00,0.000000e+00,4.600000e-01,1.000000e+00,5.389770e-07,1.747780e-14,-5.38975e-07,-1.61407e-12,
4.700000e-01,0.000000e+00,0.000000e+00,4.700000e-01,1.000000e+00,6.879783e-07,1.924344e-14,-6.87977e-07,-1.60638e-12,
4.800000e-01,0.000000e+00,0.000000e+00,4.800000e-01,1.000000e+00,8.694369e-07,2.140724e-14,-8.69435e-07,-1.59928e-12,
4.900000e-01,0.000000e+00,0.000000e+00,4.900000e-01,1.000000e+00,1.087144e-06,2.405302e-14,-1.08714e-06,-1.59281e-12,
5.000000e-01,0.000000e+00,0.000000e+00,5.000000e-01,1.000000e+00,1.344416e-06,2.728199e-14,-1.34441e-06,-1.58701e-12,
5.100000e-01,0.000000e+00,0.000000e+00,5.100000e-01,1.000000e+00,1.643925e-06,3.121625e-14,-1.64392e-06,-1.58215e-12,
5.200000e-01,0.000000e+00,0.000000e+00,5.200000e-01,1.000000e+00,1.987577e-06,3.600287e-14,-1.98758e-06,-1.57818e-12,
5.300000e-01,0.000000e+00,0.000000e+00,5.300000e-01,1.000000e+00,2.376470e-06,4.181876e-14,-2.37647e-06,-1.57549e-12,
5.400000e-01,0.000000e+00,0.000000e+00,5.400000e-01,1.000000e+00,2.810907e-06,4.887642e-14,-2.81091e-06,-1.57435e-12,
5.500000e-01,0.000000e+00,0.000000e+00,5.500000e-01,1.000000e+00,3.290463e-06,5.743067e-14,-3.29046e-06,-1.57471e-12,
5.600000e-01,0.000000e+00,0.000000e+00,5.600000e-01,1.000000e+00,3.814102e-06,6.778671e-14,-3.81410e-06,-1.57702e-12,
5.700000e-01,0.000000e+00,0.000000e+00,5.700000e-01,1.000000e+00,4.380296e-06,8.030961e-14,-4.38029e-06,-1.58171e-12,
5.800000e-01,0.000000e+00,0.000000e+00,5.800000e-01,1.000000e+00,4.987164e-06,9.543568e-14,-4.98716e-06,-1.58920e-12,
5.900000e-01,0.000000e+00,0.000000e+00,5.900000e-01,1.000000e+00,5.632597e-06,1.136858e-13,-5.63260e-06,-1.59991e-12,
6.000000e-01,0.000000e+00,0.000000e+00,6.000000e-01,1.000000e+00,6.314364e-06,1.356817e-13,-6.31436e-06,-1.61454e-12,
6.100000e-01,0.000000e+00,0.000000e+00,6.100000e-01,1.000000e+00,7.030204e-06,1.621645e-13,-7.03020e-06,-1.63372e-12,
6.200000e-01,0.000000e+00,0.000000e+00,6.200000e-01,1.000000e+00,7.777896e-06,1.940177e-13,-7.77789e-06,-1.65831e-12,
6.300000e-01,0.000000e+00,0.000000e+00,6.300000e-01,1.000000e+00,8.555306e-06,2.322939e-13,-8.55530e-06,-1.68957e-12,
6.400000e-01,0.000000e+00,0.000000e+00,6.400000e-01,1.000000e+00,9.360421e-06,2.782465e-13,-9.36042e-06,-1.72859e-12,
6.500000e-01,0.000000e+00,0.000000e+00,6.500000e-01,1.000000e+00,1.019137e-05,3.333673e-13,-1.01914e-05,-1.77680e-12,
6.600000e-01,0.000000e+00,0.000000e+00,6.600000e-01,1.000000e+00,1.104642e-05,3.994315e-13,-1.10464e-05,-1.83606e-12,
6.700000e-01,0.000000e+00,0.000000e+00,6.700000e-01,1.000000e+00,1.192401e-05,4.785496e-13,-1.19240e-05,-1.90850e-12,
6.800000e-01,0.000000e+00,0.000000e+00,6.800000e-01,1.000000e+00,1.282269e-05,5.732302e-13,-1.28227e-05,-1.99657e-12,
6.900000e-01,0.000000e+00,0.000000e+00,6.900000e-01,1.000000e+00,1.374117e-05,6.864529e-13,-1.37412e-05,-2.10329e-12,
7.000000e-01,0.000000e+00,0.000000e+00,7.000000e-01,1.000000e+00,1.467828e-05,8.217542e-13,-1.46783e-05,-2.23219e-12,
7.100000e-01,0.000000e+00,0.000000e+00,7.100000e-01,1.000000e+00,1.563294e-05,9.833287e-13,-1.56329e-05,-2.38742e-12,
7.200000e-01,0.000000e+00,0.000000e+00,7.200000e-01,1.000000e+00,1.660421e-05,1.176147e-12,-1.66042e-05,-2.57383e-12,
7.300000e-01,0.000000e+00,0.000000e+00,7.300000e-01,1.000000e+00,1.759121e-05,1.406094e-12,-1.75912e-05,-2.79754e-12,
7.400000e-01,0.000000e+00,0.000000e+00,7.400000e-01,1.000000e+00,1.859315e-05,1.680129e-12,-1.85932e-05,-3.06544e-12,
7.500000e-01,0.000000e+00,0.000000e+00,7.500000e-01,1.000000e+00,1.960931e-05,2.006474e-12,-1.96093e-05,-3.38568e-12,
7.600000e-01,0.000000e+00,0.000000e+00,7.600000e-01,1.000000e+00,2.063902e-05,2.394828e-12,-2.06390e-05,-3.76807e-12,
7.700000e-01,0.000000e+00,0.000000e+00,7.700000e-01,1.000000e+00,2.168168e-05,2.856615e-12,-2.16817e-05,-4.22390e-12,
7.800000e-01,0.000000e+00,0.000000e+00,7.800000e-01,1.000000e+00,2.273673e-05,3.405271e-12,-2.27367e-05,-4.76658e-12,
7.900000e-01,0.000000e+00,0.000000e+00,7.900000e-01,1.000000e+00,2.380365e-05,4.056571e-12,-2.38036e-05,-5.41209e-12,
8.000000e-01,0.000000e+00,0.000000e+00,8.000000e-01,1.000000e+00,2.488196e-05,4.828995e-12,-2.48820e-05,-6.17870e-12,
8.100000e-01,0.000000e+00,0.000000e+00,8.100000e-01,1.000000e+00,2.597119e-05,5.744150e-12,-2.59712e-05,-7.08814e-12,
8.200000e-01,0.000000e+00,0.000000e+00,8.200000e-01,1.000000e+00,2.707094e-05,6.827231e-12,-2.70709e-05,-8.16555e-12,
8.300000e-01,0.000000e+00,0.000000e+00,8.300000e-01,1.000000e+00,2.818080e-05,8.107544e-12,-2.81808e-05,-9.44034e-12,
8.400000e-01,0.000000e+00,0.000000e+00,8.400000e-01,1.000000e+00,2.930039e-05,9.619077e-12,-2.93004e-05,-1.09462e-11,
8.500000e-01,0.000000e+00,0.000000e+00,8.500000e-01,1.000000e+00,3.042937e-05,1.140112e-11,-3.04294e-05,-1.27228e-11,
8.600000e-01,0.000000e+00,0.000000e+00,8.600000e-01,1.000000e+00,3.156738e-05,1.349894e-11,-3.15674e-05,-1.48151e-11,
8.700000e-01,0.000000e+00,0.000000e+00,8.700000e-01,1.000000e+00,3.271412e-05,1.596448e-11,-3.27141e-05,-1.72752e-11,
8.800000e-01,0.000000e+00,0.000000e+00,8.800000e-01,1.000000e+00,3.386927e-05,1.885713e-11,-3.38693e-05,-2.01623e-11,
8.900000e-01,0.000000e+00,0.000000e+00,8.900000e-01,1.000000e+00,3.503254e-05,2.224447e-11,-3.50325e-05,-2.35442e-11,
9.000000e-01,0.000000e+00,0.000000e+00,9.000000e-01,1.000000e+00,3.620365e-05,2.620307e-11,-3.62036e-05,-2.74974e-11,
9.100000e-01,0.000000e+00,0.000000e+00,9.100000e-01,1.000000e+00,3.738233e-05,3.081923e-11,-3.73823e-05,-3.21080e-11,
9.200000e-01,0.000000e+00,0.000000e+00,9.200000e-01,1.000000e+00,3.856834e-05,3.618975e-11,-3.85683e-05,-3.74728e-11,
9.300000e-01,0.000000e+00,0.000000e+00,9.300000e-01,1.000000e+00,3.976142e-05,4.242263e-11,-3.97614e-05,-4.37000e-11,
9.400000e-01,0.000000e+00,0.000000e+00,9.400000e-01,1.000000e+00,4.096134e-05,4.963765e-11,-4.09613e-05,-5.09089e-11,
9.500000e-01,0.000000e+00,0.000000e+00,9.500000e-01,1.000000e+00,4.216787e-05,5.796698e-11,-4.21679e-05,-5.92318e-11,
9.600000e-01,0.000000e+00,0.000000e+00,9.600000e-01,1.000000e+00,4.338079e-05,6.755559e-11,-4.33808e-05,-6.88135e-11,
9.700000e-01,0.000000e+00,0.000000e+00,9.700000e-01,1.000000e+00,4.459991e-05,7.856160e-11,-4.45999e-05,-7.98119e-11,
9.800000e-01,0.000000e+00,0.000000e+00,9.800000e-01,1.000000e+00,4.582501e-05,9.115656e-11,-4.58250e-05,-9.23981e-11,
9.900000e-01,0.000000e+00,0.000000e+00,9.900000e-01,1.000000e+00,4.705591e-05,1.055256e-10,-4.70559e-05,-1.06757e-10,
1.000000e+00,0.000000e+00,0.000000e+00,1.000000e+00,1.000000e+00,4.829242e-05,1.218674e-10,-4.82924e-05,-1.23087e-10,
