Valim,Vd,Vg,Vs,Vb,Id,Ig,Is,Ib
0.000000e+00,0.000000e+00,0.000000e+00,0.000000e+00,1.000000e+00,1.038901e-12,1.660299e-14,1.038901e-12,-2.09446e-12,
1.000000e-02,0.000000e+00,0.000000e+00,1.000000e-02,1.000000e+00,1.121672e-12,1.660325e-14,9.461289e-13,-2.08442e-12,
2.000000e-02,0.000000e+00,0.000000e+00,2.000000e-02,1.000000e+00,1.251938e-12,1.660348e-14,8.058636e-13,-2.07448e-12,
3.000000e-02,0.000000e+00,0.000000e+00,3.000000e-02,1.000000e+00,1.447575e-12,1.660371e-14,6.002263e-13,-2.06449e-12,
4.000000e-02,0.000000e+00,0.000000e+00,4.000000e-02,1.000000e+00,1.732251e-12,1.660392e-14,3.055498e-13,-2.05441e-12,
5.000000e-02,0.000000e+00,0.000000e+00,5.000000e-02,1.000000e+00,2.138615e-12,1.660412e-14,-1.10814e-13,-2.04445e-12,
6.000000e-02,0.000000e+00,0.000000e+00,6.000000e-02,1.000000e+00,2.713717e-12,1.660431e-14,-6.95916e-13,-2.03451e-12,
7.000000e-02,0.000000e+00,0.000000e+00,7.000000e-02,1.000000e+00,3.526636e-12,1.660450e-14,-1.51884e-12,-2.02438e-12,
8.000000e-02,0.000000e+00,0.000000e+00,8.000000e-02,1.000000e+00,4.678087e-12,1.660468e-14,-2.68029e-12,-2.01442e-12,
9.000000e-02,0.000000e+00,0.000000e+00,9.000000e-02,1.000000e+00,6.312879e-12,1.660487e-14,-4.32508e-12,-2.00442e-12,
1.000000e-01,0.000000e+00,0.000000e+00,1.000000e-01,1.000000e+00,8.637342e-12,1.660507e-14,-6.65954e-12,-1.99443e-12,
1.100000e-01,0.000000e+00,0.000000e+00,1.100000e-01,1.000000e+00,1.194434e-11,1.660528e-14,-9.97654e-12,-1.98447e-12,
1.200000e-01,0.000000e+00,0.000000e+00,1.200000e-01,1.000000e+00,1.664893e-11,1.660552e-14,-1.46911e-11,-1.97442e-12,
1.300000e-01,0.000000e+00,0.000000e+00,1.300000e-01,1.000000e+00,2.333886e-11,1.660580e-14,-2.13911e-11,-1.96443e-12,
1.400000e-01,0.000000e+00,0.000000e+00,1.400000e-01,1.000000e+00,3.284565e-11,1.660614e-14,-3.09078e-11,-1.95446e-12,
1.500000e-01,0.000000e+00,0.000000e+00,1.500000e-01,1.000000e+00,4.634442e-11,1.660657e-14,-4.44166e-11,-1.94436e-12,
1.600000e-01,0.000000e+00,0.000000e+00,1.600000e-01,1.000000e+00,6.549382e-11,1.660714e-14,-6.35760e-11,-1.93437e-12,
1.700000e-01,0.000000e+00,0.000000e+00,1.700000e-01,1.000000e+00,9.263155e-11,1.660793e-14,-9.07237e-11,-1.92446e-12,
1.800000e-01,0.000000e+00,0.000000e+00,1.800000e-01,1.000000e+00,1.310470e-10,1.660899e-14,-1.29149e-10,-1.91450e-12,
1.900000e-01,0.000000e+00,0.000000e+00,1.900000e-01,1.000000e+00,1.853603e-10,1.661040e-14,-1.83473e-10,-1.90448e-12,
2.000000e-01,0.000000e+00,0.000000e+00,2.000000e-01,1.000000e+00,2.620468e-10,1.661228e-14,-2.60169e-10,-1.89446e-12,
2.100000e-01,0.000000e+00,0.000000e+00,2.100000e-01,1.000000e+00,3.701612e-10,1.661481e-14,-3.68293e-10,-1.88446e-12,
2.200000e-01,0.000000e+00,0.000000e+00,2.200000e-01,1.000000e+00,5.223323e-10,1.661823e-14,-5.20475e-10,-1.87445e-12,
2.300000e-01,0.000000e+00,0.000000e+00,2.300000e-01,1.000000e+00,7.361219e-10,1.662288e-14,-7.34274e-10,-1.86445e-12,
2.400000e-01,0.000000e+00,0.000000e+00,2.400000e-01,1.000000e+00,1.035873e-09,1.662921e-14,-1.03404e-09,-1.85446e-12,
2.500000e-01,0.000000e+00,0.000000e+00,2.500000e-01,1.000000e+00,1.455208e-09,1.663784e-14,-1.45338e-09,-1.84447e-12,
2.600000e-01,0.000000e+00,0.000000e+00,2.600000e-01,1.000000e+00,2.040383e-09,1.664962e-14,-2.03857e-09,-1.83450e-12,
2.700000e-01,0.000000e+00,0.000000e+00,2.700000e-01,1.000000e+00,2.854767e-09,1.666569e-14,-2.85296e-09,-1.82454e-12,
2.800000e-01,0.000000e+00,0.000000e+00,2.800000e-01,1.000000e+00,3.984775e-09,1.668756e-14,-3.98298e-09,-1.81452e-12,
2.900000e-01,0.000000e+00,0.000000e+00,2.900000e-01,1.000000e+00,5.547678e-09,1.671726e-14,-5.54589e-09,-1.80458e-12,
3.000000e-01,0.000000e+00,0.000000e+00,3.000000e-01,1.000000e+00,7.701837e-09,1.675746e-14,-7.70006e-09,-1.79456e-12,
3.100000e-01,0.000000e+00,0.000000e+00,3.100000e-01,1.000000e+00,1.066000e-08,1.681164e-14,-1.06582e-08,-1.78466e-12,
3.200000e-01,0.000000e+00,0.000000e+00,3.200000e-01,1.000000e+00,1.470654e-08,1.688433e-14,-1.47048e-08,-1.77480e-12,
3.300000e-01,0.000000e+00,0.000000e+00,3.300000e-01,1.000000e+00,2.021968e-08,1.698133e-14,-2.02179e-08,-1.76487e-12,
3.400000e-01,0.000000e+00,0.000000e+00,3.400000e-01,1.000000e+00,2.770008e-08,1.711000e-14,-2.76983e-08,-1.75504e-12,
3.500000e-01,0.000000e+00,0.000000e+00,3.500000e-01,1.000000e+00,3.780738e-08,1.727961e-14,-3.78057e-08,-1.74527e-12,
3.600000e-01,0.000000e+00,0.000000e+00,3.600000e-01,1.000000e+00,5.140653e-08,1.750168e-14,-5.14048e-08,-1.73545e-12,
3.700000e-01,0.000000e+00,0.000000e+00,3.700000e-01,1.000000e+00,6.962579e-08,1.779040e-14,-6.96241e-08,-1.72581e-12,
3.800000e-01,0.000000e+00,0.000000e+00,3.800000e-01,1.000000e+00,9.392753e-08,1.816312e-14,-9.39258e-08,-1.71632e-12,
3.900000e-01,0.000000e+00,0.000000e+00,3.900000e-01,1.000000e+00,1.261915e-07,1.864083e-14,-1.26190e-07,-1.70691e-12,
4.000000e-01,0.000000e+00,0.000000e+00,4.000000e-01,1.000000e+00,1.688071e-07,1.924888e-14,-1.68805e-07,-1.69764e-12,
4.100000e-01,0.000000e+00,0.000000e+00,4.100000e-01,1.000000e+00,2.247674e-07,2.001765e-14,-2.24766e-07,-1.68857e-12,
4.200000e-01,0.000000e+00,0.000000e+00,4.200000e-01,1.000000e+00,2.977497e-07,2.098360e-14,-2.97748e-07,-1.67980e-12,
4.300000e-01,0.000000e+00,0.000000e+00,4.300000e-01,1.000000e+00,3.921660e-07,2.219039e-14,-3.92164e-07,-1.67141e-12,
4.400000e-01,0.000000e+00,0.000000e+00,4.400000e-01,1.000000e+00,5.131582e-07,2.369043e-14,-5.13157e-07,-1.66334e-12,
4.500000e-01,0.000000e+00,0.000000e+00,4.500000e-01,1.000000e+00,6.665190e-07,2.554668e-14,-6.66517e-07,-1.65579e-12,
4.600000e-01,0.000000e+00,0.000000e+00,4.600000e-01,1.000000e+00,8.585260e-07,2.783502e-14,-8.58524e-07,-1.64888e-12,
4.700000e-01,0.000000e+00,0.000000e+00,4.700000e-01,1.000000e+00,1.095689e-06,3.064696e-14,-1.09569e-06,-1.64260e-12,
4.800000e-01,0.000000e+00,0.000000e+00,4.800000e-01,1.000000e+00,1.384434e-06,3.409300e-14,-1.38443e-06,-1.63711e-12,
4.900000e-01,0.000000e+00,0.000000e+00,4.900000e-01,1.000000e+00,1.730755e-06,3.830666e-14,-1.73075e-06,-1.63272e-12,
5.000000e-01,0.000000e+00,0.000000e+00,5.000000e-01,1.000000e+00,2.139884e-06,4.344910e-14,-2.13988e-06,-1.62936e-12,
5.100000e-01,0.000000e+00,0.000000e+00,5.100000e-01,1.000000e+00,2.616017e-06,4.971477e-14,-2.61601e-06,-1.62759e-12,
5.200000e-01,0.000000e+00,0.000000e+00,5.200000e-01,1.000000e+00,3.162131e-06,5.733790e-14,-3.16213e-06,-1.62725e-12,
5.300000e-01,0.000000e+00,0.000000e+00,5.300000e-01,1.000000e+00,3.779913e-06,6.660025e-14,-3.77991e-06,-1.62897e-12,
5.400000e-01,0.000000e+00,0.000000e+00,5.400000e-01,1.000000e+00,4.469783e-06,7.784023e-14,-4.46978e-06,-1.63286e-12,
5.500000e-01,0.000000e+00,0.000000e+00,5.500000e-01,1.000000e+00,5.231013e-06,9.146366e-14,-5.23101e-06,-1.63936e-12,
5.600000e-01,0.000000e+00,0.000000e+00,5.600000e-01,1.000000e+00,6.061898e-06,1.079566e-13,-6.06190e-06,-1.64907e-12,
5.700000e-01,0.000000e+00,0.000000e+00,5.700000e-01,1.000000e+00,6.959962e-06,1.279005e-13,-6.95996e-06,-1.66248e-12,
5.800000e-01,0.000000e+00,0.000000e+00,5.800000e-01,1.000000e+00,7.922175e-06,1.519901e-13,-7.92217e-06,-1.68021e-12,
5.900000e-01,0.000000e+00,0.000000e+00,5.900000e-01,1.000000e+00,8.945146e-06,1.810552e-13,-8.94514e-06,-1.70314e-12,
6.000000e-01,0.000000e+00,0.000000e+00,6.000000e-01,1.000000e+00,1.002530e-05,2.160856e-13,-1.00253e-05,-1.73234e-12,
6.100000e-01,0.000000e+00,0.000000e+00,6.100000e-01,1.000000e+00,1.115903e-05,2.582619e-13,-1.11590e-05,-1.76884e-12,
6.200000e-01,0.000000e+00,0.000000e+00,6.200000e-01,1.000000e+00,1.234278e-05,3.089911e-13,-1.23428e-05,-1.81402e-12,
6.300000e-01,0.000000e+00,0.000000e+00,6.300000e-01,1.000000e+00,1.357315e-05,3.699495e-13,-1.35731e-05,-1.86956e-12,
6.400000e-01,0.000000e+00,0.000000e+00,6.400000e-01,1.000000e+00,1.484693e-05,4.431332e-13,-1.48469e-05,-1.93759e-12,
6.500000e-01,0.000000e+00,0.000000e+00,6.500000e-01,1.000000e+00,1.616115e-05,5.309183e-13,-1.61611e-05,-2.02033e-12,
6.600000e-01,0.000000e+00,0.000000e+00,6.600000e-01,1.000000e+00,1.751305e-05,6.361316e-13,-1.75131e-05,-2.12069e-12,
6.700000e-01,0.000000e+00,0.000000e+00,6.700000e-01,1.000000e+00,1.890015e-05,7.621345e-13,-1.89001e-05,-2.24187e-12,
6.800000e-01,0.000000e+00,0.000000e+00,6.800000e-01,1.000000e+00,2.032015e-05,9.129221e-13,-2.03201e-05,-2.38801e-12,
6.900000e-01,0.000000e+00,0.000000e+00,6.900000e-01,1.000000e+00,2.177101e-05,1.093240e-12,-2.17710e-05,-2.56384e-12,
7.000000e-01,0.000000e+00,0.000000e+00,7.000000e-01,1.000000e+00,2.325085e-05,1.308720e-12,-2.32509e-05,-2.77492e-12,
7.100000e-01,0.000000e+00,0.000000e+00,7.100000e-01,1.000000e+00,2.475801e-05,1.566042e-12,-2.47580e-05,-3.02794e-12,
7.200000e-01,0.000000e+00,0.000000e+00,7.200000e-01,1.000000e+00,2.629096e-05,1.873123e-12,-2.62910e-05,-3.33081e-12,
7.300000e-01,0.000000e+00,0.000000e+00,7.300000e-01,1.000000e+00,2.784833e-05,2.239335e-12,-2.78483e-05,-3.69305e-12,
7.400000e-01,0.000000e+00,0.000000e+00,7.400000e-01,1.000000e+00,2.942886e-05,2.675761e-12,-2.94289e-05,-4.12553e-12,
7.500000e-01,0.000000e+00,0.000000e+00,7.500000e-01,1.000000e+00,3.103141e-05,3.195496e-12,-3.10314e-05,-4.64134e-12,
7.600000e-01,0.000000e+00,0.000000e+00,7.600000e-01,1.000000e+00,3.265495e-05,3.813985e-12,-3.26550e-05,-5.25607e-12,
7.700000e-01,0.000000e+00,0.000000e+00,7.700000e-01,1.000000e+00,3.429852e-05,4.549423e-12,-3.42985e-05,-5.98790e-12,
7.800000e-01,0.000000e+00,0.000000e+00,7.800000e-01,1.000000e+00,3.596123e-05,5.423209e-12,-3.59612e-05,-6.85804e-12,
7.900000e-01,0.000000e+00,0.000000e+00,7.900000e-01,1.000000e+00,3.764227e-05,6.460465e-12,-3.76423e-05,-7.89196e-12,
8.000000e-01,0.000000e+00,0.000000e+00,8.000000e-01,1.000000e+00,3.934088e-05,7.690622e-12,-3.93409e-05,-9.11871e-12,
8.100000e-01,0.000000e+00,0.000000e+00,8.100000e-01,1.000000e+00,4.105634e-05,9.148090e-12,-4.10563e-05,-1.05729e-11,
8.200000e-01,0.000000e+00,0.000000e+00,8.200000e-01,1.000000e+00,4.278800e-05,1.087300e-11,-4.27880e-05,-1.22946e-11,
8.300000e-01,0.000000e+00,0.000000e+00,8.300000e-01,1.000000e+00,4.453523e-05,1.291201e-11,-4.45352e-05,-1.43306e-11,
8.400000e-01,0.000000e+00,0.000000e+00,8.400000e-01,1.000000e+00,4.629744e-05,1.531927e-11,-4.62974e-05,-1.67347e-11,
8.500000e-01,0.000000e+00,0.000000e+00,8.500000e-01,1.000000e+00,4.807407e-05,1.815734e-11,-4.80741e-05,-1.95698e-11,
8.600000e-01,0.000000e+00,0.000000e+00,8.600000e-01,1.000000e+00,4.986459e-05,2.149831e-11,-4.98646e-05,-2.29079e-11,
8.700000e-01,0.000000e+00,0.000000e+00,8.700000e-01,1.000000e+00,5.166851e-05,2.542492e-11,-5.16685e-05,-2.68316e-11,
8.800000e-01,0.000000e+00,0.000000e+00,8.800000e-01,1.000000e+00,5.348533e-05,3.003173e-11,-5.34853e-05,-3.14355e-11,
8.900000e-01,0.000000e+00,0.000000e+00,8.900000e-01,1.000000e+00,5.531461e-05,3.542638e-11,-5.53146e-05,-3.68273e-11,
9.000000e-01,0.000000e+00,0.000000e+00,9.000000e-01,1.000000e+00,5.715591e-05,4.173081e-11,-5.71559e-05,-4.31289e-11,
9.100000e-01,0.000000e+00,0.000000e+00,9.100000e-01,1.000000e+00,5.900882e-05,4.908247e-11,-5.90088e-05,-5.04776e-11,
9.200000e-01,0.000000e+00,0.000000e+00,9.200000e-01,1.000000e+00,6.087293e-05,5.763553e-11,-6.08729e-05,-5.90276e-11,
9.300000e-01,0.000000e+00,0.000000e+00,9.300000e-01,1.000000e+00,6.274786e-05,6.756196e-11,-6.27479e-05,-6.89506e-11,
9.400000e-01,0.000000e+00,0.000000e+00,9.400000e-01,1.000000e+00,6.463324e-05,7.905255e-11,-6.46332e-05,-8.04375e-11,
9.500000e-01,0.000000e+00,0.000000e+00,9.500000e-01,1.000000e+00,6.652873e-05,9.231778e-11,-6.65287e-05,-9.36986e-11,
9.600000e-01,0.000000e+00,0.000000e+00,9.600000e-01,1.000000e+00,6.843398e-05,1.075885e-10,-6.84340e-05,-1.08964e-10,
9.700000e-01,0.000000e+00,0.000000e+00,9.700000e-01,1.000000e+00,7.034868e-05,1.251166e-10,-7.03487e-05,-1.26486e-10,
9.800000e-01,0.000000e+00,0.000000e+00,9.800000e-01,1.000000e+00,7.227251e-05,1.451753e-10,-7.22725e-05,-1.46538e-10,
9.900000e-01,0.000000e+00,0.000000e+00,9.900000e-01,1.000000e+00,7.420518e-05,1.680592e-10,-7.42052e-05,-1.69412e-10,
1.000000e+00,0.000000e+00,0.000000e+00,1.000000e+00,1.000000e+00,7.614639e-05,1.940851e-10,-7.61464e-05,-1.95425e-10,
