Valim,Vd,Vg,Vs,Vb,Id,Ig,Is,Ib
0.000000e+00,1.000000e+00,0.000000e+00,0.000000e+00,1.000000e+00,-7.61464e-05,1.940851e-10,7.614639e-05,-1.95425e-10,
1.000000e-02,1.000000e+00,0.000000e+00,1.000000e-02,1.000000e+00,-7.56221e-05,1.899375e-10,7.562206e-05,-1.91259e-10,
2.000000e-02,1.000000e+00,0.000000e+00,2.000000e-02,1.000000e+00,-7.50992e-05,1.858676e-10,7.509919e-05,-1.87171e-10,
3.000000e-02,1.000000e+00,0.000000e+00,3.000000e-02,1.000000e+00,-7.45776e-05,1.818743e-10,7.457762e-05,-1.83159e-10,
4.000000e-02,1.000000e+00,0.000000e+00,4.000000e-02,1.000000e+00,-7.40572e-05,1.779563e-10,7.405720e-05,-1.79223e-10,
5.000000e-02,1.000000e+00,0.000000e+00,5.000000e-02,1.000000e+00,-7.35378e-05,1.741127e-10,7.353780e-05,-1.75361e-10,
6.000000e-02,1.000000e+00,0.000000e+00,6.000000e-02,1.000000e+00,-7.30193e-05,1.703421e-10,7.301931e-05,-1.71573e-10,
7.000000e-02,1.000000e+00,0.000000e+00,7.000000e-02,1.000000e+00,-7.25016e-05,1.666436e-10,7.250163e-05,-1.67856e-10,
8.000000e-02,1.000000e+00,0.000000e+00,8.000000e-02,1.000000e+00,-7.19847e-05,1.630160e-10,7.198467e-05,-1.64211e-10,
9.000000e-02,1.000000e+00,0.000000e+00,9.000000e-02,1.000000e+00,-7.14683e-05,1.594583e-10,7.146834e-05,-1.60635e-10,
1.000000e-01,1.000000e+00,0.000000e+00,1.000000e-01,1.000000e+00,-7.09526e-05,1.559692e-10,7.095256e-05,-1.57129e-10,
1.100000e-01,1.000000e+00,0.000000e+00,1.100000e-01,1.000000e+00,-7.04373e-05,1.525479e-10,7.043727e-05,-1.53690e-10,
1.200000e-01,1.000000e+00,0.000000e+00,1.200000e-01,1.000000e+00,-6.99224e-05,1.491931e-10,6.992237e-05,-1.50317e-10,
1.300000e-01,1.000000e+00,0.000000e+00,1.300000e-01,1.000000e+00,-6.94078e-05,1.459039e-10,6.940781e-05,-1.47011e-10,
1.400000e-01,1.000000e+00,0.000000e+00,1.400000e-01,1.000000e+00,-6.88935e-05,1.426792e-10,6.889351e-05,-1.43769e-10,
1.500000e-01,1.000000e+00,0.000000e+00,1.500000e-01,1.000000e+00,-6.83794e-05,1.395180e-10,6.837938e-05,-1.40591e-10,
1.600000e-01,1.000000e+00,0.000000e+00,1.600000e-01,1.000000e+00,-6.78653e-05,1.364192e-10,6.786535e-05,-1.37475e-10,
1.700000e-01,1.000000e+00,0.000000e+00,1.700000e-01,1.000000e+00,-6.73513e-05,1.333819e-10,6.735133e-05,-1.34421e-10,
1.800000e-01,1.000000e+00,0.000000e+00,1.800000e-01,1.000000e+00,-6.68372e-05,1.304050e-10,6.683723e-05,-1.31427e-10,
1.900000e-01,1.000000e+00,0.000000e+00,1.900000e-01,1.000000e+00,-6.63229e-05,1.274876e-10,6.632295e-05,-1.28493e-10,
2.000000e-01,1.000000e+00,0.000000e+00,2.000000e-01,1.000000e+00,-6.58084e-05,1.246286e-10,6.580838e-05,-1.25617e-10,
2.100000e-01,1.000000e+00,0.000000e+00,2.100000e-01,1.000000e+00,-6.52934e-05,1.218272e-10,6.529341e-05,-1.22800e-10,
2.200000e-01,1.000000e+00,0.000000e+00,2.200000e-01,1.000000e+00,-6.47779e-05,1.190823e-10,6.477791e-05,-1.20038e-10,
2.300000e-01,1.000000e+00,0.000000e+00,2.300000e-01,1.000000e+00,-6.42617e-05,1.163930e-10,6.426174e-05,-1.17333e-10,
2.400000e-01,1.000000e+00,0.000000e+00,2.400000e-01,1.000000e+00,-6.37448e-05,1.137584e-10,6.374476e-05,-1.14682e-10,
2.500000e-01,1.000000e+00,0.000000e+00,2.500000e-01,1.000000e+00,-6.32268e-05,1.111775e-10,6.322680e-05,-1.12085e-10,
2.600000e-01,1.000000e+00,0.000000e+00,2.600000e-01,1.000000e+00,-6.27077e-05,1.086494e-10,6.270769e-05,-1.09541e-10,
2.700000e-01,1.000000e+00,0.000000e+00,2.700000e-01,1.000000e+00,-6.21872e-05,1.061733e-10,6.218724e-05,-1.07049e-10,
2.800000e-01,1.000000e+00,0.000000e+00,2.800000e-01,1.000000e+00,-6.16652e-05,1.037482e-10,6.166523e-05,-1.04609e-10,
2.900000e-01,1.000000e+00,0.000000e+00,2.900000e-01,1.000000e+00,-6.11414e-05,1.013732e-10,6.114144e-05,-1.02218e-10,
3.000000e-01,1.000000e+00,0.000000e+00,3.000000e-01,1.000000e+00,-6.06156e-05,9.904754e-11,6.061561e-05,-9.98772e-11,
3.100000e-01,1.000000e+00,0.000000e+00,3.100000e-01,1.000000e+00,-6.00875e-05,9.677026e-11,6.008748e-05,-9.75848e-11,
3.200000e-01,1.000000e+00,0.000000e+00,3.200000e-01,1.000000e+00,-5.95567e-05,9.454053e-11,5.955675e-05,-9.53400e-11,
3.300000e-01,1.000000e+00,0.000000e+00,3.300000e-01,1.000000e+00,-5.90231e-05,9.235752e-11,5.902309e-05,-9.31421e-11,
3.400000e-01,1.000000e+00,0.000000e+00,3.400000e-01,1.000000e+00,-5.84862e-05,9.022040e-11,5.848617e-05,-9.09902e-11,
3.500000e-01,1.000000e+00,0.000000e+00,3.500000e-01,1.000000e+00,-5.79456e-05,8.812834e-11,5.794560e-05,-8.88835e-11,
3.600000e-01,1.000000e+00,0.000000e+00,3.600000e-01,1.000000e+00,-5.74010e-05,8.608053e-11,5.740099e-05,-8.68213e-11,
3.700000e-01,1.000000e+00,0.000000e+00,3.700000e-01,1.000000e+00,-5.68519e-05,8.407618e-11,5.685190e-05,-8.48027e-11,
3.800000e-01,1.000000e+00,0.000000e+00,3.800000e-01,1.000000e+00,-5.62979e-05,8.211450e-11,5.629787e-05,-8.28270e-11,
3.900000e-01,1.000000e+00,0.000000e+00,3.900000e-01,1.000000e+00,-5.57384e-05,8.019470e-11,5.573844e-05,-8.08932e-11,
4.000000e-01,1.000000e+00,0.000000e+00,4.000000e-01,1.000000e+00,-5.51731e-05,7.831603e-11,5.517308e-05,-7.90008e-11,
4.100000e-01,1.000000e+00,0.000000e+00,4.100000e-01,1.000000e+00,-5.46013e-05,7.647771e-11,5.460129e-05,-7.71489e-11,
4.200000e-01,1.000000e+00,0.000000e+00,4.200000e-01,1.000000e+00,-5.40225e-05,7.467901e-11,5.402252e-05,-7.53369e-11,
4.300000e-01,1.000000e+00,0.000000e+00,4.300000e-01,1.000000e+00,-5.34363e-05,7.291919e-11,5.343625e-05,-7.35638e-11,
4.400000e-01,1.000000e+00,0.000000e+00,4.400000e-01,1.000000e+00,-5.28419e-05,7.119751e-11,5.284193e-05,-7.18293e-11,
4.500000e-01,1.000000e+00,0.000000e+00,4.500000e-01,1.000000e+00,-5.22390e-05,6.951326e-11,5.223903e-05,-7.01322e-11,
4.600000e-01,1.000000e+00,0.000000e+00,4.600000e-01,1.000000e+00,-5.16270e-05,6.786574e-11,5.162704e-05,-6.84720e-11,
4.700000e-01,1.000000e+00,0.000000e+00,4.700000e-01,1.000000e+00,-5.10055e-05,6.625425e-11,5.100546e-05,-6.68480e-11,
4.800000e-01,1.000000e+00,0.000000e+00,4.800000e-01,1.000000e+00,-5.03738e-05,6.467810e-11,5.037384e-05,-6.52597e-11,
4.900000e-01,1.000000e+00,0.000000e+00,4.900000e-01,1.000000e+00,-4.97317e-05,6.313661e-11,4.973174e-05,-6.37060e-11,
5.000000e-01,1.000000e+00,0.000000e+00,5.000000e-01,1.000000e+00,-4.90788e-05,6.162911e-11,4.907876e-05,-6.21865e-11,
5.100000e-01,1.000000e+00,0.000000e+00,5.100000e-01,1.000000e+00,-4.84145e-05,6.015495e-11,4.841454e-05,-6.07006e-11,
5.200000e-01,1.000000e+00,0.000000e+00,5.200000e-01,1.000000e+00,-4.77388e-05,5.871349e-11,4.773877e-05,-5.92474e-11,
5.300000e-01,1.000000e+00,0.000000e+00,5.300000e-01,1.000000e+00,-4.70512e-05,5.730407e-11,4.705117e-05,-5.78265e-11,
5.400000e-01,1.000000e+00,0.000000e+00,5.400000e-01,1.000000e+00,-4.63515e-05,5.592608e-11,4.635148e-05,-5.64371e-11,
5.500000e-01,1.000000e+00,0.000000e+00,5.500000e-01,1.000000e+00,-4.56395e-05,5.457890e-11,4.563948e-05,-5.50786e-11,
5.600000e-01,1.000000e+00,0.000000e+00,5.600000e-01,1.000000e+00,-4.49150e-05,5.326191e-11,4.491499e-05,-5.37504e-11,
5.700000e-01,1.000000e+00,0.000000e+00,5.700000e-01,1.000000e+00,-4.41779e-05,5.197451e-11,4.417786e-05,-5.24519e-11,
5.800000e-01,1.000000e+00,0.000000e+00,5.800000e-01,1.000000e+00,-4.34279e-05,5.071613e-11,4.342794e-05,-5.11825e-11,
5.900000e-01,1.000000e+00,0.000000e+00,5.900000e-01,1.000000e+00,-4.26651e-05,4.948617e-11,4.266513e-05,-4.99417e-11,
6.000000e-01,1.000000e+00,0.000000e+00,6.000000e-01,1.000000e+00,-4.18893e-05,4.828406e-11,4.188932e-05,-4.87287e-11,
6.100000e-01,1.000000e+00,0.000000e+00,6.100000e-01,1.000000e+00,-4.11004e-05,4.710924e-11,4.110043e-05,-4.75431e-11,
6.200000e-01,1.000000e+00,0.000000e+00,6.200000e-01,1.000000e+00,-4.02984e-05,4.596116e-11,4.029840e-05,-4.63842e-11,
6.300000e-01,1.000000e+00,0.000000e+00,6.300000e-01,1.000000e+00,-3.94832e-05,4.483927e-11,3.948318e-05,-4.52517e-11,
6.400000e-01,1.000000e+00,0.000000e+00,6.400000e-01,1.000000e+00,-3.86547e-05,4.374303e-11,3.865472e-05,-4.41448e-11,
6.500000e-01,1.000000e+00,0.000000e+00,6.500000e-01,1.000000e+00,-3.78130e-05,4.267193e-11,3.781298e-05,-4.30632e-11,
6.600000e-01,1.000000e+00,0.000000e+00,6.600000e-01,1.000000e+00,-3.69579e-05,4.162544e-11,3.695794e-05,-4.20062e-11,
6.700000e-01,1.000000e+00,0.000000e+00,6.700000e-01,1.000000e+00,-3.60896e-05,4.060305e-11,3.608957e-05,-4.09734e-11,
6.800000e-01,1.000000e+00,0.000000e+00,6.800000e-01,1.000000e+00,-3.52079e-05,3.960427e-11,3.520786e-05,-3.99641e-11,
6.900000e-01,1.000000e+00,0.000000e+00,6.900000e-01,1.000000e+00,-3.43128e-05,3.862860e-11,3.431281e-05,-3.89779e-11,
7.000000e-01,1.000000e+00,0.000000e+00,7.000000e-01,1.000000e+00,-3.34044e-05,3.767555e-11,3.340439e-05,-3.80145e-11,
7.100000e-01,1.000000e+00,0.000000e+00,7.100000e-01,1.000000e+00,-3.24826e-05,3.674465e-11,3.248262e-05,-3.70732e-11,
7.200000e-01,1.000000e+00,0.000000e+00,7.200000e-01,1.000000e+00,-3.15475e-05,3.583544e-11,3.154748e-05,-3.61537e-11,
7.300000e-01,1.000000e+00,0.000000e+00,7.300000e-01,1.000000e+00,-3.05990e-05,3.494746e-11,3.059899e-05,-3.52554e-11,
7.400000e-01,1.000000e+00,0.000000e+00,7.400000e-01,1.000000e+00,-2.96372e-05,3.408025e-11,2.963716e-05,-3.43779e-11,
7.500000e-01,1.000000e+00,0.000000e+00,7.500000e-01,1.000000e+00,-2.86620e-05,3.323337e-11,2.866198e-05,-3.35208e-11,
7.600000e-01,1.000000e+00,0.000000e+00,7.600000e-01,1.000000e+00,-2.76735e-05,3.240639e-11,2.767347e-05,-3.26836e-11,
7.700000e-01,1.000000e+00,0.000000e+00,7.700000e-01,1.000000e+00,-2.66716e-05,3.159888e-11,2.667165e-05,-3.18658e-11,
7.800000e-01,1.000000e+00,0.000000e+00,7.800000e-01,1.000000e+00,-2.56565e-05,3.081042e-11,2.565652e-05,-3.10671e-11,
7.900000e-01,1.000000e+00,0.000000e+00,7.900000e-01,1.000000e+00,-2.46281e-05,3.004061e-11,2.462810e-05,-3.02871e-11,
8.000000e-01,1.000000e+00,0.000000e+00,8.000000e-01,1.000000e+00,-2.35864e-05,2.928903e-11,2.358642e-05,-2.95252e-11,
8.100000e-01,1.000000e+00,0.000000e+00,8.100000e-01,1.000000e+00,-2.25315e-05,2.855529e-11,2.253148e-05,-2.87813e-11,
8.200000e-01,1.000000e+00,0.000000e+00,8.200000e-01,1.000000e+00,-2.14633e-05,2.783900e-11,2.146330e-05,-2.80548e-11,
8.300000e-01,1.000000e+00,0.000000e+00,8.300000e-01,1.000000e+00,-2.03819e-05,2.713978e-11,2.038191e-05,-2.73455e-11,
8.400000e-01,1.000000e+00,0.000000e+00,8.400000e-01,1.000000e+00,-1.92873e-05,2.645725e-11,1.928733e-05,-2.66527e-11,
8.500000e-01,1.000000e+00,0.000000e+00,8.500000e-01,1.000000e+00,-1.81796e-05,2.579105e-11,1.817958e-05,-2.59762e-11,
8.600000e-01,1.000000e+00,0.000000e+00,8.600000e-01,1.000000e+00,-1.70587e-05,2.514082e-11,1.705868e-05,-2.53158e-11,
8.700000e-01,1.000000e+00,0.000000e+00,8.700000e-01,1.000000e+00,-1.59247e-05,2.450620e-11,1.592466e-05,-2.46710e-11,
8.800000e-01,1.000000e+00,0.000000e+00,8.800000e-01,1.000000e+00,-1.47775e-05,2.388684e-11,1.477754e-05,-2.40413e-11,
8.900000e-01,1.000000e+00,0.000000e+00,8.900000e-01,1.000000e+00,-1.36173e-05,2.328241e-11,1.361734e-05,-2.34264e-11,
9.000000e-01,1.000000e+00,0.000000e+00,9.000000e-01,1.000000e+00,-1.24441e-05,2.269257e-11,1.244409e-05,-2.28260e-11,
9.100000e-01,1.000000e+00,0.000000e+00,9.100000e-01,1.000000e+00,-1.12578e-05,2.211700e-11,1.125782e-05,-2.22399e-11,
9.200000e-01,1.000000e+00,0.000000e+00,9.200000e-01,1.000000e+00,-1.00586e-05,2.155537e-11,1.005855e-05,-2.16673e-11,
9.300000e-01,1.000000e+00,0.000000e+00,9.300000e-01,1.000000e+00,-8.84632e-06,2.100737e-11,8.846318e-06,-2.11081e-11,
9.400000e-01,1.000000e+00,0.000000e+00,9.400000e-01,1.000000e+00,-7.62114e-06,2.047270e-11,7.621144e-06,-2.05619e-11,
9.500000e-01,1.000000e+00,0.000000e+00,9.500000e-01,1.000000e+00,-6.38306e-06,1.995104e-11,6.383058e-06,-2.00280e-11,
9.600000e-01,1.000000e+00,0.000000e+00,9.600000e-01,1.000000e+00,-5.13209e-06,1.944211e-11,5.132090e-06,-1.95061e-11,
9.700000e-01,1.000000e+00,0.000000e+00,9.700000e-01,1.000000e+00,-3.86827e-06,1.894562e-11,3.868270e-06,-1.89955e-11,
9.800000e-01,1.000000e+00,0.000000e+00,9.800000e-01,1.000000e+00,-2.59163e-06,1.846127e-11,2.591628e-06,-1.84954e-11,
9.900000e-01,1.000000e+00,0.000000e+00,9.900000e-01,1.000000e+00,-1.30219e-06,1.798880e-11,1.302194e-06,-1.80051e-11,
1.000000e+00,1.000000e+00,0.000000e+00,1.000000e+00,1.000000e+00,-2.22240e-15,1.752791e-11,-2.22254e-15,-1.75235e-11,
