Valim,Vd,Vg,Vs,Vb,Id,Ig,Is,Ib
0.000000e+00,1.000000e+00,0.000000e+00,0.000000e+00,7.499823e-01,-8.50780e-05,1.273968e-10,8.507788e-05,0.000000e+00,
1.000000e-02,1.000000e+00,0.000000e+00,1.000000e-02,7.505959e-01,-8.44984e-05,1.248894e-10,8.449829e-05,0.000000e+00,
2.000000e-02,1.000000e+00,0.000000e+00,2.000000e-02,7.512113e-01,-8.39200e-05,1.224244e-10,8.391986e-05,0.000000e+00,
3.000000e-02,1.000000e+00,0.000000e+00,3.000000e-02,7.518285e-01,-8.33425e-05,1.200011e-10,8.334242e-05,0.000000e+00,
4.000000e-02,1.000000e+00,0.000000e+00,4.000000e-02,7.524471e-01,-8.27660e-05,1.176190e-10,8.276585e-05,0.000000e+00,
5.000000e-02,1.000000e+00,0.000000e+00,5.000000e-02,7.530683e-01,-8.21901e-05,1.152778e-10,8.218998e-05,0.000000e+00,
6.000000e-02,1.000000e+00,0.000000e+00,6.000000e-02,7.536911e-01,-8.16149e-05,1.129767e-10,8.161475e-05,0.000000e+00,
7.000000e-02,1.000000e+00,0.000000e+00,7.000000e-02,7.543156e-01,-8.10402e-05,1.107152e-10,8.104005e-05,0.000000e+00,
8.000000e-02,1.000000e+00,0.000000e+00,8.000000e-02,7.549419e-01,-8.04659e-05,1.084929e-10,8.046579e-05,0.000000e+00,
9.000000e-02,1.000000e+00,0.000000e+00,9.000000e-02,7.555700e-01,-7.98920e-05,1.063092e-10,7.989187e-05,0.000000e+00,
1.000000e-01,1.000000e+00,0.000000e+00,1.000000e-01,7.561991e-01,-7.93183e-05,1.041635e-10,7.931824e-05,0.000000e+00,
1.100000e-01,1.000000e+00,0.000000e+00,1.100000e-01,7.568313e-01,-7.87448e-05,1.020556e-10,7.874473e-05,0.000000e+00,
1.200000e-01,1.000000e+00,0.000000e+00,1.200000e-01,7.574649e-01,-7.81714e-05,9.998480e-11,7.817133e-05,0.000000e+00,
1.300000e-01,1.000000e+00,0.000000e+00,1.300000e-01,7.581002e-01,-7.75980e-05,9.795053e-11,7.759794e-05,0.000000e+00,
1.400000e-01,1.000000e+00,0.000000e+00,1.400000e-01,7.587372e-01,-7.70246e-05,9.595233e-11,7.702446e-05,0.000000e+00,
1.500000e-01,1.000000e+00,0.000000e+00,1.500000e-01,7.593760e-01,-7.64509e-05,9.398973e-11,7.645079e-05,0.000000e+00,
1.600000e-01,1.000000e+00,0.000000e+00,1.600000e-01,7.600166e-01,-7.58769e-05,9.206223e-11,7.587683e-05,0.000000e+00,
1.700000e-01,1.000000e+00,0.000000e+00,1.700000e-01,7.606586e-01,-7.53026e-05,9.016927e-11,7.530249e-05,0.000000e+00,
1.800000e-01,1.000000e+00,0.000000e+00,1.800000e-01,7.613030e-01,-7.47277e-05,8.831053e-11,7.472761e-05,0.000000e+00,
1.900000e-01,1.000000e+00,0.000000e+00,1.900000e-01,7.619489e-01,-7.41522e-05,8.648540e-11,7.415208e-05,0.000000e+00,
2.000000e-01,1.000000e+00,0.000000e+00,2.000000e-01,7.625965e-01,-7.35759e-05,8.469342e-11,7.357577e-05,0.000000e+00,
2.100000e-01,1.000000e+00,0.000000e+00,2.100000e-01,7.632459e-01,-7.29986e-05,8.293412e-11,7.299851e-05,0.000000e+00,
2.200000e-01,1.000000e+00,0.000000e+00,2.200000e-01,7.638970e-01,-7.24202e-05,8.120702e-11,7.242016e-05,0.000000e+00,
2.300000e-01,1.000000e+00,0.000000e+00,2.300000e-01,7.645493e-01,-7.18406e-05,7.951158e-11,7.184054e-05,0.000000e+00,
2.400000e-01,1.000000e+00,0.000000e+00,2.400000e-01,7.652043e-01,-7.12595e-05,7.784756e-11,7.125940e-05,0.000000e+00,
2.500000e-01,1.000000e+00,0.000000e+00,2.500000e-01,7.658607e-01,-7.06767e-05,7.621431e-11,7.067659e-05,0.000000e+00,
2.600000e-01,1.000000e+00,0.000000e+00,2.600000e-01,7.665187e-01,-7.00919e-05,7.461140e-11,7.009186e-05,0.000000e+00,
2.700000e-01,1.000000e+00,0.000000e+00,2.700000e-01,7.671784e-01,-6.95050e-05,7.303839e-11,6.950495e-05,0.000000e+00,
2.800000e-01,1.000000e+00,0.000000e+00,2.800000e-01,7.678399e-01,-6.89157e-05,7.149483e-11,6.891560e-05,0.000000e+00,
2.900000e-01,1.000000e+00,0.000000e+00,2.900000e-01,7.685030e-01,-6.83236e-05,6.998028e-11,6.832351e-05,0.000000e+00,
3.000000e-01,1.000000e+00,0.000000e+00,3.000000e-01,7.691676e-01,-6.77284e-05,6.849426e-11,6.772837e-05,0.000000e+00,
3.100000e-01,1.000000e+00,0.000000e+00,3.100000e-01,7.698343e-01,-6.71299e-05,6.703643e-11,6.712980e-05,0.000000e+00,
3.200000e-01,1.000000e+00,0.000000e+00,3.200000e-01,7.705025e-01,-6.65275e-05,6.560628e-11,6.652746e-05,0.000000e+00,
3.300000e-01,1.000000e+00,0.000000e+00,3.300000e-01,7.711723e-01,-6.59210e-05,6.420338e-11,6.592094e-05,0.000000e+00,
3.400000e-01,1.000000e+00,0.000000e+00,3.400000e-01,7.718439e-01,-6.53099e-05,6.282733e-11,6.530981e-05,0.000000e+00,
3.500000e-01,1.000000e+00,0.000000e+00,3.500000e-01,7.725170e-01,-6.46937e-05,6.147769e-11,6.469362e-05,0.000000e+00,
3.600000e-01,1.000000e+00,0.000000e+00,3.600000e-01,7.731914e-01,-6.40720e-05,6.015400e-11,6.407190e-05,0.000000e+00,
3.700000e-01,1.000000e+00,0.000000e+00,3.700000e-01,7.738681e-01,-6.34442e-05,5.885599e-11,6.344412e-05,0.000000e+00,
3.800000e-01,1.000000e+00,0.000000e+00,3.800000e-01,7.745463e-01,-6.28098e-05,5.758312e-11,6.280978e-05,0.000000e+00,
3.900000e-01,1.000000e+00,0.000000e+00,3.900000e-01,7.752260e-01,-6.21684e-05,5.633502e-11,6.216834e-05,0.000000e+00,
4.000000e-01,1.000000e+00,0.000000e+00,4.000000e-01,7.759073e-01,-6.15193e-05,5.511130e-11,6.151927e-05,0.000000e+00,
4.100000e-01,1.000000e+00,0.000000e+00,4.100000e-01,7.765901e-01,-6.08621e-05,5.391155e-11,6.086201e-05,0.000000e+00,
4.200000e-01,1.000000e+00,0.000000e+00,4.200000e-01,7.772738e-01,-6.01961e-05,5.273532e-11,6.019604e-05,0.000000e+00,
4.300000e-01,1.000000e+00,0.000000e+00,4.300000e-01,7.779604e-01,-5.95208e-05,5.158240e-11,5.952079e-05,0.000000e+00,
4.400000e-01,1.000000e+00,0.000000e+00,4.400000e-01,7.786481e-01,-5.88358e-05,5.045226e-11,5.883579e-05,0.000000e+00,
4.500000e-01,1.000000e+00,0.000000e+00,4.500000e-01,7.793373e-01,-5.81406e-05,4.934454e-11,5.814056e-05,0.000000e+00,
4.600000e-01,1.000000e+00,0.000000e+00,4.600000e-01,7.800281e-01,-5.74347e-05,4.825889e-11,5.743465e-05,0.000000e+00,
4.700000e-01,1.000000e+00,0.000000e+00,4.700000e-01,7.807204e-01,-5.67177e-05,4.719492e-11,5.671764e-05,0.000000e+00,
4.800000e-01,1.000000e+00,0.000000e+00,4.800000e-01,7.814143e-01,-5.59892e-05,4.615228e-11,5.598916e-05,0.000000e+00,
4.900000e-01,1.000000e+00,0.000000e+00,4.900000e-01,7.821093e-01,-5.52489e-05,4.513056e-11,5.524888e-05,0.000000e+00,
5.000000e-01,1.000000e+00,0.000000e+00,5.000000e-01,7.828066e-01,-5.44965e-05,4.412951e-11,5.449649e-05,0.000000e+00,
5.100000e-01,1.000000e+00,0.000000e+00,5.100000e-01,7.835052e-01,-5.37318e-05,4.314869e-11,5.373175e-05,0.000000e+00,
5.200000e-01,1.000000e+00,0.000000e+00,5.200000e-01,7.842053e-01,-5.29545e-05,4.218776e-11,5.295443e-05,0.000000e+00,
5.300000e-01,1.000000e+00,0.000000e+00,5.300000e-01,7.849070e-01,-5.21644e-05,4.124639e-11,5.216434e-05,0.000000e+00,
5.400000e-01,1.000000e+00,0.000000e+00,5.400000e-01,7.856102e-01,-5.13614e-05,4.032424e-11,5.136133e-05,0.000000e+00,
5.500000e-01,1.000000e+00,0.000000e+00,5.500000e-01,7.863144e-01,-5.05453e-05,3.942093e-11,5.054526e-05,0.000000e+00,
5.600000e-01,1.000000e+00,0.000000e+00,5.600000e-01,7.870212e-01,-4.97160e-05,3.853623e-11,4.971600e-05,0.000000e+00,
5.700000e-01,1.000000e+00,0.000000e+00,5.700000e-01,7.877291e-01,-4.88735e-05,3.766974e-11,4.887348e-05,0.000000e+00,
5.800000e-01,1.000000e+00,0.000000e+00,5.800000e-01,7.884387e-01,-4.80177e-05,3.682114e-11,4.801761e-05,0.000000e+00,
5.900000e-01,1.000000e+00,0.000000e+00,5.900000e-01,7.891497e-01,-4.71484e-05,3.599011e-11,4.714835e-05,0.000000e+00,
6.000000e-01,1.000000e+00,0.000000e+00,6.000000e-01,7.898624e-01,-4.62657e-05,3.517634e-11,4.626563e-05,0.000000e+00,
6.100000e-01,1.000000e+00,0.000000e+00,6.100000e-01,7.905767e-01,-4.53695e-05,3.437953e-11,4.536944e-05,0.000000e+00,
6.200000e-01,1.000000e+00,0.000000e+00,6.200000e-01,7.912923e-01,-4.44598e-05,3.359935e-11,4.445973e-05,0.000000e+00,
6.300000e-01,1.000000e+00,0.000000e+00,6.300000e-01,7.920100e-01,-4.35365e-05,3.283553e-11,4.353648e-05,0.000000e+00,
6.400000e-01,1.000000e+00,0.000000e+00,6.400000e-01,7.927291e-01,-4.25997e-05,3.208776e-11,4.259969e-05,0.000000e+00,
6.500000e-01,1.000000e+00,0.000000e+00,6.500000e-01,7.934498e-01,-4.16494e-05,3.135572e-11,4.164935e-05,0.000000e+00,
6.600000e-01,1.000000e+00,0.000000e+00,6.600000e-01,7.941722e-01,-4.06855e-05,3.063915e-11,4.068546e-05,0.000000e+00,
6.700000e-01,1.000000e+00,0.000000e+00,6.700000e-01,7.948957e-01,-3.97081e-05,2.993773e-11,3.970804e-05,0.000000e+00,
6.800000e-01,1.000000e+00,0.000000e+00,6.800000e-01,7.956219e-01,-3.87171e-05,2.925124e-11,3.871705e-05,0.000000e+00,
6.900000e-01,1.000000e+00,0.000000e+00,6.900000e-01,7.963494e-01,-3.77126e-05,2.857935e-11,3.771254e-05,0.000000e+00,
7.000000e-01,1.000000e+00,0.000000e+00,7.000000e-01,7.970787e-01,-3.66945e-05,2.792181e-11,3.669450e-05,0.000000e+00,
7.100000e-01,1.000000e+00,0.000000e+00,7.100000e-01,7.978098e-01,-3.56630e-05,2.727834e-11,3.566297e-05,0.000000e+00,
7.200000e-01,1.000000e+00,0.000000e+00,7.200000e-01,7.985425e-01,-3.46180e-05,2.664866e-11,3.461795e-05,0.000000e+00,
7.300000e-01,1.000000e+00,0.000000e+00,7.300000e-01,7.992777e-01,-3.35595e-05,2.603255e-11,3.355946e-05,0.000000e+00,
7.400000e-01,1.000000e+00,0.000000e+00,7.400000e-01,8.000150e-01,-3.24876e-05,2.542974e-11,3.248752e-05,0.000000e+00,
7.500000e-01,1.000000e+00,0.000000e+00,7.500000e-01,8.007547e-01,-3.14022e-05,2.483998e-11,3.140216e-05,0.000000e+00,
7.600000e-01,1.000000e+00,0.000000e+00,7.600000e-01,8.014969e-01,-3.03034e-05,2.426302e-11,3.030340e-05,0.000000e+00,
7.700000e-01,1.000000e+00,0.000000e+00,7.700000e-01,8.022420e-01,-2.91913e-05,2.369863e-11,2.919126e-05,0.000000e+00,
7.800000e-01,1.000000e+00,0.000000e+00,7.800000e-01,8.029904e-01,-2.80658e-05,2.314656e-11,2.806577e-05,0.000000e+00,
7.900000e-01,1.000000e+00,0.000000e+00,7.900000e-01,8.037437e-01,-2.69270e-05,2.260665e-11,2.692693e-05,0.000000e+00,
8.000000e-01,1.000000e+00,0.000000e+00,8.000000e-01,8.045019e-01,-2.57748e-05,2.207864e-11,2.577479e-05,0.000000e+00,
8.100000e-01,1.000000e+00,0.000000e+00,8.100000e-01,8.052663e-01,-2.46094e-05,2.156234e-11,2.460937e-05,0.000000e+00,
8.200000e-01,1.000000e+00,0.000000e+00,8.200000e-01,8.060396e-01,-2.34307e-05,2.105759e-11,2.343067e-05,0.000000e+00,
8.300000e-01,1.000000e+00,0.000000e+00,8.300000e-01,8.068234e-01,-2.22387e-05,2.056421e-11,2.223872e-05,0.000000e+00,
8.400000e-01,1.000000e+00,0.000000e+00,8.400000e-01,8.076212e-01,-2.10336e-05,2.008207e-11,2.103355e-05,0.000000e+00,
8.500000e-01,1.000000e+00,0.000000e+00,8.500000e-01,8.084389e-01,-1.98152e-05,1.961109e-11,1.981515e-05,0.000000e+00,
8.600000e-01,1.000000e+00,0.000000e+00,8.600000e-01,8.092816e-01,-1.85836e-05,1.915118e-11,1.858354e-05,0.000000e+00,
8.700000e-01,1.000000e+00,0.000000e+00,8.700000e-01,8.101590e-01,-1.73387e-05,1.870236e-11,1.733873e-05,0.000000e+00,
8.800000e-01,1.000000e+00,0.000000e+00,8.800000e-01,8.110827e-01,-1.60807e-05,1.826466e-11,1.608072e-05,0.000000e+00,
8.900000e-01,1.000000e+00,0.000000e+00,8.900000e-01,8.120697e-01,-1.48095e-05,1.783828e-11,1.480952e-05,0.000000e+00,
9.000000e-01,1.000000e+00,0.000000e+00,9.000000e-01,8.131412e-01,-1.35252e-05,1.742344e-11,1.352514e-05,0.000000e+00,
9.100000e-01,1.000000e+00,0.000000e+00,9.100000e-01,8.143280e-01,-1.22276e-05,1.702059e-11,1.222761e-05,0.000000e+00,
9.200000e-01,1.000000e+00,0.000000e+00,9.200000e-01,8.156676e-01,-1.09170e-05,1.663027e-11,1.091698e-05,0.000000e+00,
9.300000e-01,1.000000e+00,0.000000e+00,9.300000e-01,8.172097e-01,-9.59338e-06,1.625324e-11,9.593369e-06,0.000000e+00,
9.400000e-01,1.000000e+00,0.000000e+00,9.400000e-01,8.190171e-01,-8.25696e-06,1.589047e-11,8.256945e-06,0.000000e+00,
9.500000e-01,1.000000e+00,0.000000e+00,9.500000e-01,8.211650e-01,-6.90803e-06,1.554306e-11,6.908017e-06,0.000000e+00,
9.600000e-01,1.000000e+00,0.000000e+00,9.600000e-01,8.237414e-01,-5.54706e-06,1.521229e-11,5.547048e-06,0.000000e+00,
9.700000e-01,1.000000e+00,0.000000e+00,9.700000e-01,8.268395e-01,-4.17473e-06,1.489937e-11,4.174719e-06,0.000000e+00,
9.800000e-01,1.000000e+00,0.000000e+00,9.800000e-01,8.305530e-01,-2.79197e-06,1.460534e-11,2.791952e-06,0.000000e+00,
9.900000e-01,1.000000e+00,0.000000e+00,9.900000e-01,8.349620e-01,-1.39993e-06,1.433083e-11,1.399918e-06,0.000000e+00,
1.000000e+00,1.000000e+00,0.000000e+00,1.000000e+00,8.401220e-01,-7.03793e-12,1.407584e-11,-7.03793e-12,0.000000e+00,
