Valim,Vd,Vg,Vs,Vb,Id,Ig,Is,Ib
0.000000e+00,0.000000e+00,0.000000e+00,0.000000e+00,-1.34474e-18,2.009790e-31,-4.01914e-31,2.009790e-31,0.000000e+00,
1.000000e-02,0.000000e+00,0.000000e+00,1.000000e-02,5.135570e-03,2.451474e-12,1.580315e-18,-2.45148e-12,0.000000e+00,
2.000000e-02,0.000000e+00,0.000000e+00,2.000000e-02,1.054047e-02,6.001514e-12,3.292939e-18,-6.00152e-12,0.000000e+00,
3.000000e-02,0.000000e+00,0.000000e+00,3.000000e-02,1.620824e-02,1.092949e-11,5.146202e-18,-1.09295e-11,0.000000e+00,
4.000000e-02,0.000000e+00,0.000000e+00,4.000000e-02,2.212704e-02,1.758113e-11,7.147123e-18,-1.75811e-11,0.000000e+00,
5.000000e-02,0.000000e+00,0.000000e+00,5.000000e-02,2.828627e-02,2.642780e-11,9.303436e-18,-2.64278e-11,0.000000e+00,
6.000000e-02,0.000000e+00,0.000000e+00,6.000000e-02,3.466653e-02,3.815389e-11,1.161992e-17,-3.81539e-11,0.000000e+00,
7.000000e-02,0.000000e+00,0.000000e+00,7.000000e-02,4.125253e-02,5.374330e-11,1.410273e-17,-5.37433e-11,0.000000e+00,
8.000000e-02,0.000000e+00,0.000000e+00,8.000000e-02,4.803098e-02,7.455849e-11,1.675876e-17,-7.45585e-11,0.000000e+00,
9.000000e-02,0.000000e+00,0.000000e+00,9.000000e-02,5.498296e-02,1.024366e-10,1.959262e-17,-1.02437e-10,0.000000e+00,
1.000000e-01,0.000000e+00,0.000000e+00,1.000000e-01,6.209399e-02,1.398193e-10,2.261046e-17,-1.39819e-10,0.000000e+00,
1.100000e-01,0.000000e+00,0.000000e+00,1.100000e-01,6.935364e-02,1.899369e-10,2.582022e-17,-1.89937e-10,0.000000e+00,
1.200000e-01,0.000000e+00,0.000000e+00,1.200000e-01,7.674612e-02,2.570649e-10,2.922752e-17,-2.57065e-10,0.000000e+00,
1.300000e-01,0.000000e+00,0.000000e+00,1.300000e-01,8.426407e-02,3.468360e-10,3.284210e-17,-3.46836e-10,0.000000e+00,
1.400000e-01,0.000000e+00,0.000000e+00,1.400000e-01,9.189577e-02,4.666750e-10,3.667227e-17,-4.66675e-10,0.000000e+00,
1.500000e-01,0.000000e+00,0.000000e+00,1.500000e-01,9.963132e-02,6.263350e-10,4.072851e-17,-6.26335e-10,0.000000e+00,
1.600000e-01,0.000000e+00,0.000000e+00,1.600000e-01,1.074653e-01,8.385789e-10,4.502825e-17,-8.38579e-10,0.000000e+00,
1.700000e-01,0.000000e+00,0.000000e+00,1.700000e-01,1.153904e-01,1.120081e-09,4.959345e-17,-1.12008e-09,0.000000e+00,
1.800000e-01,0.000000e+00,0.000000e+00,1.800000e-01,1.234004e-01,1.492542e-09,5.443636e-17,-1.49254e-09,0.000000e+00,
1.900000e-01,0.000000e+00,0.000000e+00,1.900000e-01,1.314903e-01,1.984116e-09,5.957226e-17,-1.98412e-09,0.000000e+00,
2.000000e-01,0.000000e+00,0.000000e+00,2.000000e-01,1.396548e-01,2.631215e-09,6.502410e-17,-2.63121e-09,0.000000e+00,
2.100000e-01,0.000000e+00,0.000000e+00,2.100000e-01,1.478826e-01,3.480893e-09,7.081674e-17,-3.48089e-09,0.000000e+00,
2.200000e-01,0.000000e+00,0.000000e+00,2.200000e-01,1.561834e-01,4.593269e-09,7.699681e-17,-4.59327e-09,0.000000e+00,
2.300000e-01,0.000000e+00,0.000000e+00,2.300000e-01,1.645399e-01,6.045903e-09,8.360190e-17,-6.04590e-09,0.000000e+00,
2.400000e-01,0.000000e+00,0.000000e+00,2.400000e-01,1.729589e-01,7.937304e-09,9.069887e-17,-7.93730e-09,0.000000e+00,
2.500000e-01,0.000000e+00,0.000000e+00,2.500000e-01,1.814285e-01,1.039358e-08,9.835657e-17,-1.03936e-08,0.000000e+00,
2.600000e-01,0.000000e+00,0.000000e+00,2.600000e-01,1.899512e-01,1.357442e-08,1.066747e-16,-1.35744e-08,0.000000e+00,
2.700000e-01,0.000000e+00,0.000000e+00,2.700000e-01,1.985226e-01,1.768230e-08,1.157737e-16,-1.76823e-08,0.000000e+00,
2.800000e-01,0.000000e+00,0.000000e+00,2.800000e-01,2.071404e-01,2.297263e-08,1.258070e-16,-2.29726e-08,0.000000e+00,
2.900000e-01,0.000000e+00,0.000000e+00,2.900000e-01,2.157984e-01,2.976648e-08,1.369651e-16,-2.97665e-08,0.000000e+00,
3.000000e-01,0.000000e+00,0.000000e+00,3.000000e-01,2.244974e-01,3.846371e-08,1.494944e-16,-3.84637e-08,0.000000e+00,
3.100000e-01,0.000000e+00,0.000000e+00,3.100000e-01,2.332407e-01,4.955793e-08,1.637071e-16,-4.95579e-08,0.000000e+00,
3.200000e-01,0.000000e+00,0.000000e+00,3.200000e-01,2.420171e-01,6.365567e-08,1.799766e-16,-6.36557e-08,0.000000e+00,
3.300000e-01,0.000000e+00,0.000000e+00,3.300000e-01,2.508241e-01,8.148712e-08,1.987797e-16,-8.14871e-08,0.000000e+00,
3.400000e-01,0.000000e+00,0.000000e+00,3.400000e-01,2.596684e-01,1.039138e-07,2.207227e-16,-1.03914e-07,0.000000e+00,
3.500000e-01,0.000000e+00,0.000000e+00,3.500000e-01,2.685390e-01,1.319416e-07,2.465358e-16,-1.31942e-07,0.000000e+00,
3.600000e-01,0.000000e+00,0.000000e+00,3.600000e-01,2.774382e-01,1.667035e-07,2.771466e-16,-1.66704e-07,0.000000e+00,
3.700000e-01,0.000000e+00,0.000000e+00,3.700000e-01,2.863684e-01,2.094444e-07,3.137092e-16,-2.09444e-07,0.000000e+00,
3.800000e-01,0.000000e+00,0.000000e+00,3.800000e-01,2.953195e-01,2.614992e-07,3.576362e-16,-2.61499e-07,0.000000e+00,
3.900000e-01,0.000000e+00,0.000000e+00,3.900000e-01,3.042898e-01,3.242361e-07,4.106975e-16,-3.24236e-07,0.000000e+00,
4.000000e-01,0.000000e+00,0.000000e+00,4.000000e-01,3.132912e-01,3.989877e-07,4.751223e-16,-3.98988e-07,0.000000e+00,
4.100000e-01,0.000000e+00,0.000000e+00,4.100000e-01,3.223066e-01,4.870410e-07,5.536129e-16,-4.87041e-07,0.000000e+00,
4.200000e-01,0.000000e+00,0.000000e+00,4.200000e-01,3.313459e-01,5.895122e-07,6.495890e-16,-5.89512e-07,0.000000e+00,
4.300000e-01,0.000000e+00,0.000000e+00,4.300000e-01,3.403948e-01,7.073663e-07,7.672235e-16,-7.07366e-07,0.000000e+00,
4.400000e-01,0.000000e+00,0.000000e+00,4.400000e-01,3.494689e-01,8.412843e-07,9.117772e-16,-8.41284e-07,0.000000e+00,
4.500000e-01,0.000000e+00,0.000000e+00,4.500000e-01,3.585526e-01,9.917573e-07,1.089650e-15,-9.91757e-07,0.000000e+00,
4.600000e-01,0.000000e+00,0.000000e+00,4.600000e-01,3.676499e-01,1.158978e-06,1.308814e-15,-1.15898e-06,0.000000e+00,
4.700000e-01,0.000000e+00,0.000000e+00,4.700000e-01,3.767607e-01,1.342897e-06,1.579087e-15,-1.34290e-06,0.000000e+00,
4.800000e-01,0.000000e+00,0.000000e+00,4.800000e-01,3.858822e-01,1.543247e-06,1.912538e-15,-1.54325e-06,0.000000e+00,
4.900000e-01,0.000000e+00,0.000000e+00,4.900000e-01,3.950178e-01,1.759549e-06,2.324038e-15,-1.75955e-06,0.000000e+00,
5.000000e-01,0.000000e+00,0.000000e+00,5.000000e-01,4.041588e-01,1.991208e-06,2.831745e-15,-1.99121e-06,0.000000e+00,
5.100000e-01,0.000000e+00,0.000000e+00,5.100000e-01,4.133099e-01,2.237470e-06,3.458018e-15,-2.23747e-06,0.000000e+00,
5.200000e-01,0.000000e+00,0.000000e+00,5.200000e-01,4.224627e-01,2.497553e-06,4.230092e-15,-2.49755e-06,0.000000e+00,
5.300000e-01,0.000000e+00,0.000000e+00,5.300000e-01,4.316188e-01,2.770593e-06,5.181359e-15,-2.77059e-06,0.000000e+00,
5.400000e-01,0.000000e+00,0.000000e+00,5.400000e-01,4.407803e-01,3.055708e-06,6.352630e-15,-3.05571e-06,0.000000e+00,
5.500000e-01,0.000000e+00,0.000000e+00,5.500000e-01,4.499368e-01,3.352089e-06,7.793465e-15,-3.35209e-06,0.000000e+00,
5.600000e-01,0.000000e+00,0.000000e+00,5.600000e-01,4.590912e-01,3.658891e-06,9.564512e-15,-3.65889e-06,0.000000e+00,
5.700000e-01,0.000000e+00,0.000000e+00,5.700000e-01,4.682370e-01,3.975359e-06,1.173941e-14,-3.97536e-06,0.000000e+00,
5.800000e-01,0.000000e+00,0.000000e+00,5.800000e-01,4.773701e-01,4.300781e-06,1.440774e-14,-4.30078e-06,0.000000e+00,
5.900000e-01,0.000000e+00,0.000000e+00,5.900000e-01,4.864840e-01,4.634514e-06,1.767828e-14,-4.63451e-06,0.000000e+00,
6.000000e-01,0.000000e+00,0.000000e+00,6.000000e-01,4.955736e-01,4.975968e-06,2.168312e-14,-4.97597e-06,0.000000e+00,
6.100000e-01,0.000000e+00,0.000000e+00,6.100000e-01,5.046377e-01,5.324585e-06,2.658269e-14,-5.32459e-06,0.000000e+00,
6.200000e-01,0.000000e+00,0.000000e+00,6.200000e-01,5.136590e-01,5.679968e-06,3.257032e-14,-5.67997e-06,0.000000e+00,
6.300000e-01,0.000000e+00,0.000000e+00,6.300000e-01,5.226345e-01,6.041685e-06,3.988091e-14,-6.04168e-06,0.000000e+00,
6.400000e-01,0.000000e+00,0.000000e+00,6.400000e-01,5.315505e-01,6.409423e-06,4.879743e-14,-6.40942e-06,0.000000e+00,
6.500000e-01,0.000000e+00,0.000000e+00,6.500000e-01,5.404005e-01,6.782870e-06,5.966235e-14,-6.78287e-06,0.000000e+00,
6.600000e-01,0.000000e+00,0.000000e+00,6.600000e-01,5.491744e-01,7.161781e-06,7.288829e-14,-7.16178e-06,0.000000e+00,
6.700000e-01,0.000000e+00,0.000000e+00,6.700000e-01,5.578509e-01,7.546030e-06,8.897008e-14,-7.54603e-06,0.000000e+00,
6.800000e-01,0.000000e+00,0.000000e+00,6.800000e-01,5.664190e-01,7.935455e-06,1.085043e-13,-7.93545e-06,0.000000e+00,
6.900000e-01,0.000000e+00,0.000000e+00,6.900000e-01,5.748641e-01,8.329953e-06,1.322066e-13,-8.32995e-06,0.000000e+00,
7.000000e-01,0.000000e+00,0.000000e+00,7.000000e-01,5.831666e-01,8.729491e-06,1.609329e-13,-8.72949e-06,0.000000e+00,
7.100000e-01,0.000000e+00,0.000000e+00,7.100000e-01,5.913127e-01,9.134013e-06,1.957091e-13,-9.13401e-06,0.000000e+00,
7.200000e-01,0.000000e+00,0.000000e+00,7.200000e-01,5.992908e-01,9.543474e-06,2.377620e-13,-9.54347e-06,0.000000e+00,
7.300000e-01,0.000000e+00,0.000000e+00,7.300000e-01,6.070811e-01,9.957911e-06,2.885508e-13,-9.95791e-06,0.000000e+00,
7.400000e-01,0.000000e+00,0.000000e+00,7.400000e-01,6.146733e-01,1.037731e-05,3.498176e-13,-1.03773e-05,0.000000e+00,
7.500000e-01,0.000000e+00,0.000000e+00,7.500000e-01,6.220588e-01,1.080164e-05,4.236352e-13,-1.08016e-05,0.000000e+00,
7.600000e-01,0.000000e+00,0.000000e+00,7.600000e-01,6.292267e-01,1.123093e-05,5.124619e-13,-1.12309e-05,0.000000e+00,
7.700000e-01,0.000000e+00,0.000000e+00,7.700000e-01,6.361780e-01,1.166510e-05,6.192233e-13,-1.16651e-05,0.000000e+00,
7.800000e-01,0.000000e+00,0.000000e+00,7.800000e-01,6.429127e-01,1.210409e-05,7.473830e-13,-1.21041e-05,0.000000e+00,
7.900000e-01,0.000000e+00,0.000000e+00,7.900000e-01,6.494319e-01,1.254783e-05,9.010357e-13,-1.25478e-05,0.000000e+00,
8.000000e-01,0.000000e+00,0.000000e+00,8.000000e-01,6.557488e-01,1.299616e-05,1.085037e-12,-1.29962e-05,0.000000e+00,
8.100000e-01,0.000000e+00,0.000000e+00,8.100000e-01,6.618716e-01,1.344895e-05,1.305104e-12,-1.34489e-05,0.000000e+00,
8.200000e-01,0.000000e+00,0.000000e+00,8.200000e-01,6.678177e-01,1.390599e-05,1.567985e-12,-1.39060e-05,0.000000e+00,
8.300000e-01,0.000000e+00,0.000000e+00,8.300000e-01,6.735999e-01,1.436712e-05,1.881600e-12,-1.43671e-05,0.000000e+00,
8.400000e-01,0.000000e+00,0.000000e+00,8.400000e-01,6.792386e-01,1.483210e-05,2.255258e-12,-1.48321e-05,0.000000e+00,
8.500000e-01,0.000000e+00,0.000000e+00,8.500000e-01,6.847507e-01,1.530071e-05,2.699841e-12,-1.53007e-05,0.000000e+00,
8.600000e-01,0.000000e+00,0.000000e+00,8.600000e-01,6.901554e-01,1.577272e-05,3.228053e-12,-1.57727e-05,0.000000e+00,
8.700000e-01,0.000000e+00,0.000000e+00,8.700000e-01,6.954698e-01,1.624789e-05,3.854667e-12,-1.62479e-05,0.000000e+00,
8.800000e-01,0.000000e+00,0.000000e+00,8.800000e-01,7.007115e-01,1.672601e-05,4.596814e-12,-1.67260e-05,0.000000e+00,
8.900000e-01,0.000000e+00,0.000000e+00,8.900000e-01,7.058967e-01,1.720683e-05,5.474281e-12,-1.72068e-05,0.000000e+00,
9.000000e-01,0.000000e+00,0.000000e+00,9.000000e-01,7.110415e-01,1.769014e-05,6.509844e-12,-1.76901e-05,0.000000e+00,
9.100000e-01,0.000000e+00,0.000000e+00,9.100000e-01,7.161586e-01,1.817574e-05,7.729573e-12,-1.81757e-05,0.000000e+00,
9.200000e-01,0.000000e+00,0.000000e+00,9.200000e-01,7.212620e-01,1.866342e-05,9.163241e-12,-1.86634e-05,0.000000e+00,
9.300000e-01,0.000000e+00,0.000000e+00,9.300000e-01,7.263631e-01,1.915298e-05,1.084463e-11,-1.91530e-05,0.000000e+00,
9.400000e-01,0.000000e+00,0.000000e+00,9.400000e-01,7.314729e-01,1.964425e-05,1.281193e-11,-1.96443e-05,0.000000e+00,
9.500000e-01,0.000000e+00,0.000000e+00,9.500000e-01,7.366006e-01,2.013705e-05,1.510807e-11,-2.01371e-05,0.000000e+00,
9.600000e-01,0.000000e+00,0.000000e+00,9.600000e-01,7.417555e-01,2.063122e-05,1.778110e-11,-2.06312e-05,0.000000e+00,
9.700000e-01,0.000000e+00,0.000000e+00,9.700000e-01,7.469452e-01,2.112660e-05,2.088451e-11,-2.11266e-05,0.000000e+00,
9.800000e-01,0.000000e+00,0.000000e+00,9.800000e-01,7.521770e-01,2.162304e-05,2.447754e-11,-2.16231e-05,0.000000e+00,
9.900000e-01,0.000000e+00,0.000000e+00,9.900000e-01,7.574568e-01,2.212040e-05,2.862553e-11,-2.21204e-05,0.000000e+00,
1.000000e+00,0.000000e+00,0.000000e+00,1.000000e+00,7.627903e-01,2.261855e-05,3.340014e-11,-2.26186e-05,0.000000e+00,
