Valim,Vd,Vg,Vs,Vb,Id,Ig,Is,Ib
0.000000e+00,0.000000e+00,0.000000e+00,0.000000e+00,1.000000e+00,1.073803e-12,3.513656e-14,1.073803e-12,-2.18278e-12,
1.000000e-02,0.000000e+00,0.000000e+00,1.000000e-02,1.000000e+00,1.248976e-12,3.513710e-14,8.886300e-13,-2.17282e-12,
2.000000e-02,0.000000e+00,0.000000e+00,2.000000e-02,1.000000e+00,1.524676e-12,3.513761e-14,6.029299e-13,-2.16283e-12,
3.000000e-02,0.000000e+00,0.000000e+00,3.000000e-02,1.000000e+00,1.938759e-12,3.513808e-14,1.788474e-13,-2.15278e-12,
4.000000e-02,0.000000e+00,0.000000e+00,4.000000e-02,1.000000e+00,2.541344e-12,3.513853e-14,-4.33738e-13,-2.14281e-12,
5.000000e-02,0.000000e+00,0.000000e+00,5.000000e-02,1.000000e+00,3.401580e-12,3.513895e-14,-1.30397e-12,-2.13277e-12,
6.000000e-02,0.000000e+00,0.000000e+00,6.000000e-02,1.000000e+00,4.619118e-12,3.513936e-14,-2.53151e-12,-2.12275e-12,
7.000000e-02,0.000000e+00,0.000000e+00,7.000000e-02,1.000000e+00,6.340268e-12,3.513975e-14,-4.26266e-12,-2.11284e-12,
8.000000e-02,0.000000e+00,0.000000e+00,8.000000e-02,1.000000e+00,8.778332e-12,3.514015e-14,-6.71073e-12,-2.10279e-12,
9.000000e-02,0.000000e+00,0.000000e+00,9.000000e-02,1.000000e+00,1.224000e-11,3.514054e-14,-1.01824e-11,-2.09277e-12,
1.000000e-01,0.000000e+00,0.000000e+00,1.000000e-01,1.000000e+00,1.716228e-11,3.514096e-14,-1.51147e-11,-2.08283e-12,
1.100000e-01,0.000000e+00,0.000000e+00,1.100000e-01,1.000000e+00,2.416545e-11,3.514141e-14,-2.21278e-11,-2.07281e-12,
1.200000e-01,0.000000e+00,0.000000e+00,1.200000e-01,1.000000e+00,3.412860e-11,3.514192e-14,-3.21010e-11,-2.06279e-12,
1.300000e-01,0.000000e+00,0.000000e+00,1.300000e-01,1.000000e+00,4.829664e-11,3.514251e-14,-4.62790e-11,-2.05280e-12,
1.400000e-01,0.000000e+00,0.000000e+00,1.400000e-01,1.000000e+00,6.843077e-11,3.514323e-14,-6.64232e-11,-2.04281e-12,
1.500000e-01,0.000000e+00,0.000000e+00,1.500000e-01,1.000000e+00,9.702006e-11,3.514413e-14,-9.50225e-11,-2.03279e-12,
1.600000e-01,0.000000e+00,0.000000e+00,1.600000e-01,1.000000e+00,1.375778e-10,3.514534e-14,-1.35590e-10,-2.02283e-12,
1.700000e-01,0.000000e+00,0.000000e+00,1.700000e-01,1.000000e+00,1.950556e-10,3.514701e-14,-1.93078e-10,-2.01283e-12,
1.800000e-01,0.000000e+00,0.000000e+00,1.800000e-01,1.000000e+00,2.764211e-10,3.514926e-14,-2.74453e-10,-2.00284e-12,
1.900000e-01,0.000000e+00,0.000000e+00,1.900000e-01,1.000000e+00,3.914605e-10,3.515224e-14,-3.89503e-10,-1.99282e-12,
2.000000e-01,0.000000e+00,0.000000e+00,2.000000e-01,1.000000e+00,5.538903e-10,3.515623e-14,-5.51943e-10,-1.98286e-12,
2.100000e-01,0.000000e+00,0.000000e+00,2.100000e-01,1.000000e+00,7.828908e-10,3.516158e-14,-7.80953e-10,-1.97281e-12,
2.200000e-01,0.000000e+00,0.000000e+00,2.200000e-01,1.000000e+00,1.105213e-09,3.516882e-14,-1.10329e-09,-1.96282e-12,
2.300000e-01,0.000000e+00,0.000000e+00,2.300000e-01,1.000000e+00,1.558057e-09,3.517865e-14,-1.55614e-09,-1.95291e-12,
2.400000e-01,0.000000e+00,0.000000e+00,2.400000e-01,1.000000e+00,2.192990e-09,3.519204e-14,-2.19108e-09,-1.94283e-12,
2.500000e-01,0.000000e+00,0.000000e+00,2.500000e-01,1.000000e+00,3.081232e-09,3.521031e-14,-3.07933e-09,-1.93284e-12,
2.600000e-01,0.000000e+00,0.000000e+00,2.600000e-01,1.000000e+00,4.320770e-09,3.523525e-14,-4.31888e-09,-1.92293e-12,
2.700000e-01,0.000000e+00,0.000000e+00,2.700000e-01,1.000000e+00,6.045835e-09,3.526925e-14,-6.04396e-09,-1.91286e-12,
2.800000e-01,0.000000e+00,0.000000e+00,2.800000e-01,1.000000e+00,8.439479e-09,3.531554e-14,-8.43761e-09,-1.90306e-12,
2.900000e-01,0.000000e+00,0.000000e+00,2.900000e-01,1.000000e+00,1.175012e-08,3.537839e-14,-1.17483e-08,-1.89299e-12,
3.000000e-01,0.000000e+00,0.000000e+00,3.000000e-01,1.000000e+00,1.631320e-08,3.546346e-14,-1.63113e-08,-1.88310e-12,
3.100000e-01,0.000000e+00,0.000000e+00,3.100000e-01,1.000000e+00,2.257935e-08,3.557813e-14,-2.25775e-08,-1.87325e-12,
3.200000e-01,0.000000e+00,0.000000e+00,3.200000e-01,1.000000e+00,3.115093e-08,3.573196e-14,-3.11491e-08,-1.86351e-12,
3.300000e-01,0.000000e+00,0.000000e+00,3.300000e-01,1.000000e+00,4.282904e-08,3.593723e-14,-4.28272e-08,-1.85371e-12,
3.400000e-01,0.000000e+00,0.000000e+00,3.400000e-01,1.000000e+00,5.867404e-08,3.620953e-14,-5.86722e-08,-1.84402e-12,
3.500000e-01,0.000000e+00,0.000000e+00,3.500000e-01,1.000000e+00,8.008289e-08,3.656847e-14,-8.00811e-08,-1.83445e-12,
3.600000e-01,0.000000e+00,0.000000e+00,3.600000e-01,1.000000e+00,1.088872e-07,3.703843e-14,-1.08885e-07,-1.82507e-12,
3.700000e-01,0.000000e+00,0.000000e+00,3.700000e-01,1.000000e+00,1.474759e-07,3.764945e-14,-1.47474e-07,-1.81577e-12,
3.800000e-01,0.000000e+00,0.000000e+00,3.800000e-01,1.000000e+00,1.989447e-07,3.843822e-14,-1.98943e-07,-1.80669e-12,
3.900000e-01,0.000000e+00,0.000000e+00,3.900000e-01,1.000000e+00,2.672722e-07,3.944920e-14,-2.67270e-07,-1.79792e-12,
4.000000e-01,0.000000e+00,0.000000e+00,4.000000e-01,1.000000e+00,3.575149e-07,4.073599e-14,-3.57513e-07,-1.78957e-12,
4.100000e-01,0.000000e+00,0.000000e+00,4.100000e-01,1.000000e+00,4.760040e-07,4.236293e-14,-4.76002e-07,-1.78157e-12,
4.200000e-01,0.000000e+00,0.000000e+00,4.200000e-01,1.000000e+00,6.305165e-07,4.440715e-14,-6.30515e-07,-1.77422e-12,
4.300000e-01,0.000000e+00,0.000000e+00,4.300000e-01,1.000000e+00,8.303780e-07,4.696106e-14,-8.30376e-07,-1.76748e-12,
4.400000e-01,0.000000e+00,0.000000e+00,4.400000e-01,1.000000e+00,1.086452e-06,5.013555e-14,-1.08645e-06,-1.76165e-12,
4.500000e-01,0.000000e+00,0.000000e+00,4.500000e-01,1.000000e+00,1.410968e-06,5.406391e-14,-1.41097e-06,-1.75690e-12,
4.600000e-01,0.000000e+00,0.000000e+00,4.600000e-01,1.000000e+00,1.817170e-06,5.890667e-14,-1.81717e-06,-1.75332e-12,
4.700000e-01,0.000000e+00,0.000000e+00,4.700000e-01,1.000000e+00,2.318777e-06,6.485751e-14,-2.31877e-06,-1.75110e-12,
4.800000e-01,0.000000e+00,0.000000e+00,4.800000e-01,1.000000e+00,2.929311e-06,7.215031e-14,-2.92931e-06,-1.75077e-12,
4.900000e-01,0.000000e+00,0.000000e+00,4.900000e-01,1.000000e+00,3.661369e-06,8.106758e-14,-3.66137e-06,-1.75260e-12,
5.000000e-01,0.000000e+00,0.000000e+00,5.000000e-01,1.000000e+00,4.525913e-06,9.195042e-14,-4.52591e-06,-1.75682e-12,
5.100000e-01,0.000000e+00,0.000000e+00,5.100000e-01,1.000000e+00,5.531703e-06,1.052103e-13,-5.53170e-06,-1.76401e-12,
5.200000e-01,0.000000e+00,0.000000e+00,5.200000e-01,1.000000e+00,6.684916e-06,1.213430e-13,-6.68491e-06,-1.77458e-12,
5.300000e-01,0.000000e+00,0.000000e+00,5.300000e-01,1.000000e+00,7.988991e-06,1.409447e-13,-7.98899e-06,-1.78929e-12,
5.400000e-01,0.000000e+00,0.000000e+00,5.400000e-01,1.000000e+00,9.444692e-06,1.647316e-13,-9.44469e-06,-1.80872e-12,
5.500000e-01,0.000000e+00,0.000000e+00,5.500000e-01,1.000000e+00,1.105036e-05,1.935626e-13,-1.10504e-05,-1.83373e-12,
5.600000e-01,0.000000e+00,0.000000e+00,5.600000e-01,1.000000e+00,1.280228e-05,2.284663e-13,-1.28023e-05,-1.86534e-12,
5.700000e-01,0.000000e+00,0.000000e+00,5.700000e-01,1.000000e+00,1.469514e-05,2.706731e-13,-1.46951e-05,-1.90481e-12,
5.800000e-01,0.000000e+00,0.000000e+00,5.800000e-01,1.000000e+00,1.672243e-05,3.216536e-13,-1.67224e-05,-1.95347e-12,
5.900000e-01,0.000000e+00,0.000000e+00,5.900000e-01,1.000000e+00,1.887693e-05,3.831633e-13,-1.88769e-05,-2.01317e-12,
6.000000e-01,0.000000e+00,0.000000e+00,6.000000e-01,1.000000e+00,2.115103e-05,4.572975e-13,-2.11510e-05,-2.08594e-12,
6.100000e-01,0.000000e+00,0.000000e+00,6.100000e-01,1.000000e+00,2.353706e-05,5.465543e-13,-2.35371e-05,-2.17429e-12,
6.200000e-01,0.000000e+00,0.000000e+00,6.200000e-01,1.000000e+00,2.602748e-05,6.539114e-13,-2.60275e-05,-2.28106e-12,
6.300000e-01,0.000000e+00,0.000000e+00,6.300000e-01,1.000000e+00,2.861509e-05,7.829164e-13,-2.86151e-05,-2.40971e-12,
6.400000e-01,0.000000e+00,0.000000e+00,6.400000e-01,1.000000e+00,3.129311e-05,9.377936e-13,-3.12931e-05,-2.56473e-12,
6.500000e-01,0.000000e+00,0.000000e+00,6.500000e-01,1.000000e+00,3.405522e-05,1.123571e-12,-3.40552e-05,-2.75086e-12,
6.600000e-01,0.000000e+00,0.000000e+00,6.600000e-01,1.000000e+00,3.689565e-05,1.346232e-12,-3.68956e-05,-2.97434e-12,
6.700000e-01,0.000000e+00,0.000000e+00,6.700000e-01,1.000000e+00,3.980910e-05,1.612889e-12,-3.98091e-05,-3.24196e-12,
6.800000e-01,0.000000e+00,0.000000e+00,6.800000e-01,1.000000e+00,4.279079e-05,1.931998e-12,-4.27908e-05,-3.56232e-12,
6.900000e-01,0.000000e+00,0.000000e+00,6.900000e-01,1.000000e+00,4.583636e-05,2.313600e-12,-4.58364e-05,-3.94534e-12,
7.000000e-01,0.000000e+00,0.000000e+00,7.000000e-01,1.000000e+00,4.894192e-05,2.769616e-12,-4.89419e-05,-4.40309e-12,
7.100000e-01,0.000000e+00,0.000000e+00,7.100000e-01,1.000000e+00,5.210392e-05,3.314182e-12,-5.21039e-05,-4.94971e-12,
7.200000e-01,0.000000e+00,0.000000e+00,7.200000e-01,1.000000e+00,5.531917e-05,3.964051e-12,-5.53192e-05,-5.60180e-12,
7.300000e-01,0.000000e+00,0.000000e+00,7.300000e-01,1.000000e+00,5.858478e-05,4.739057e-12,-5.85848e-05,-6.37917e-12,
7.400000e-01,0.000000e+00,0.000000e+00,7.400000e-01,1.000000e+00,6.189813e-05,5.662658e-12,-6.18981e-05,-7.30543e-12,
7.500000e-01,0.000000e+00,0.000000e+00,7.500000e-01,1.000000e+00,6.525683e-05,6.762561e-12,-6.52568e-05,-8.40816e-12,
7.600000e-01,0.000000e+00,0.000000e+00,7.600000e-01,1.000000e+00,6.865870e-05,8.071456e-12,-6.86587e-05,-9.72017e-12,
7.700000e-01,0.000000e+00,0.000000e+00,7.700000e-01,1.000000e+00,7.210173e-05,9.627848e-12,-7.21017e-05,-1.12798e-11,
7.800000e-01,0.000000e+00,0.000000e+00,7.800000e-01,1.000000e+00,7.558409e-05,1.147702e-11,-7.55841e-05,-1.31324e-11,
7.900000e-01,0.000000e+00,0.000000e+00,7.900000e-01,1.000000e+00,7.910406e-05,1.367215e-11,-7.91041e-05,-1.53312e-11,
8.000000e-01,0.000000e+00,0.000000e+00,8.000000e-01,1.000000e+00,8.266006e-05,1.627550e-11,-8.26601e-05,-1.79384e-11,
8.100000e-01,0.000000e+00,0.000000e+00,8.100000e-01,1.000000e+00,8.625061e-05,1.935991e-11,-8.62506e-05,-2.10267e-11,
8.200000e-01,0.000000e+00,0.000000e+00,8.200000e-01,1.000000e+00,8.987432e-05,2.301029e-11,-8.98743e-05,-2.46814e-11,
8.300000e-01,0.000000e+00,0.000000e+00,8.300000e-01,1.000000e+00,9.352989e-05,2.732542e-11,-9.35299e-05,-2.90009e-11,
8.400000e-01,0.000000e+00,0.000000e+00,8.400000e-01,1.000000e+00,9.721610e-05,3.241985e-11,-9.72161e-05,-3.40998e-11,
8.500000e-01,0.000000e+00,0.000000e+00,8.500000e-01,1.000000e+00,1.009318e-04,3.842600e-11,-1.00932e-04,-4.01105e-11,
8.600000e-01,0.000000e+00,0.000000e+00,8.600000e-01,1.000000e+00,1.046758e-04,4.549642e-11,-1.04676e-04,-4.71857e-11,
8.700000e-01,0.000000e+00,0.000000e+00,8.700000e-01,1.000000e+00,1.084472e-04,5.380622e-11,-1.08447e-04,-5.55003e-11,
8.800000e-01,0.000000e+00,0.000000e+00,8.800000e-01,1.000000e+00,1.122450e-04,6.355552e-11,-1.12245e-04,-6.52546e-11,
8.900000e-01,0.000000e+00,0.000000e+00,8.900000e-01,1.000000e+00,1.160681e-04,7.497211e-11,-1.16068e-04,-7.66760e-11,
9.000000e-01,0.000000e+00,0.000000e+00,9.000000e-01,1.000000e+00,1.199157e-04,8.831404e-11,-1.19916e-04,-9.00228e-11,
9.100000e-01,0.000000e+00,0.000000e+00,9.100000e-01,1.000000e+00,1.237869e-04,1.038722e-10,-1.23787e-04,-1.05586e-10,
9.200000e-01,0.000000e+00,0.000000e+00,9.200000e-01,1.000000e+00,1.276810e-04,1.219729e-10,-1.27681e-04,-1.23691e-10,
9.300000e-01,0.000000e+00,0.000000e+00,9.300000e-01,1.000000e+00,1.315970e-04,1.429800e-10,-1.31597e-04,-1.44702e-10,
9.400000e-01,0.000000e+00,0.000000e+00,9.400000e-01,1.000000e+00,1.355343e-04,1.672973e-10,-1.35534e-04,-1.69023e-10,
9.500000e-01,0.000000e+00,0.000000e+00,9.500000e-01,1.000000e+00,1.394921e-04,1.953702e-10,-1.39492e-04,-1.97098e-10,
9.600000e-01,0.000000e+00,0.000000e+00,9.600000e-01,1.000000e+00,1.434697e-04,2.276873e-10,-1.43470e-04,-2.29416e-10,
9.700000e-01,0.000000e+00,0.000000e+00,9.700000e-01,1.000000e+00,1.474665e-04,2.647817e-10,-1.47467e-04,-2.66510e-10,
9.800000e-01,0.000000e+00,0.000000e+00,9.800000e-01,1.000000e+00,1.514818e-04,3.072314e-10,-1.51482e-04,-3.08956e-10,
9.900000e-01,0.000000e+00,0.000000e+00,9.900000e-01,1.000000e+00,1.555150e-04,3.556602e-10,-1.55515e-04,-3.57377e-10,
1.000000e+00,0.000000e+00,0.000000e+00,1.000000e+00,1.000000e+00,1.595655e-04,4.107382e-10,-1.59566e-04,-4.12442e-10,
