Valim,Vd,Vg,Vs,Vb,Id,Ig,Is,Ib
0.000000e+00,1.000000e+00,0.000000e+00,0.000000e+00,1.000000e+00,-1.59566e-04,4.107382e-10,1.595655e-04,-4.12442e-10,
1.000000e-02,1.000000e+00,0.000000e+00,1.000000e-02,1.000000e+00,-1.58473e-04,4.019607e-10,1.584725e-04,-4.03636e-10,
2.000000e-02,1.000000e+00,0.000000e+00,2.000000e-02,1.000000e+00,-1.57382e-04,3.933477e-10,1.573825e-04,-3.94996e-10,
3.000000e-02,1.000000e+00,0.000000e+00,3.000000e-02,1.000000e+00,-1.56295e-04,3.848967e-10,1.562950e-04,-3.86517e-10,
4.000000e-02,1.000000e+00,0.000000e+00,4.000000e-02,1.000000e+00,-1.55210e-04,3.766052e-10,1.552098e-04,-3.78198e-10,
5.000000e-02,1.000000e+00,0.000000e+00,5.000000e-02,1.000000e+00,-1.54127e-04,3.684710e-10,1.541265e-04,-3.70037e-10,
6.000000e-02,1.000000e+00,0.000000e+00,6.000000e-02,1.000000e+00,-1.53045e-04,3.604915e-10,1.530451e-04,-3.62031e-10,
7.000000e-02,1.000000e+00,0.000000e+00,7.000000e-02,1.000000e+00,-1.51965e-04,3.526644e-10,1.519652e-04,-3.54177e-10,
8.000000e-02,1.000000e+00,0.000000e+00,8.000000e-02,1.000000e+00,-1.50887e-04,3.449874e-10,1.508867e-04,-3.46474e-10,
9.000000e-02,1.000000e+00,0.000000e+00,9.000000e-02,1.000000e+00,-1.49809e-04,3.374582e-10,1.498093e-04,-3.38918e-10,
1.000000e-01,1.000000e+00,0.000000e+00,1.000000e-01,1.000000e+00,-1.48733e-04,3.300744e-10,1.487330e-04,-3.31508e-10,
1.100000e-01,1.000000e+00,0.000000e+00,1.100000e-01,1.000000e+00,-1.47658e-04,3.228339e-10,1.476576e-04,-3.24242e-10,
1.200000e-01,1.000000e+00,0.000000e+00,1.200000e-01,1.000000e+00,-1.46583e-04,3.157343e-10,1.465829e-04,-3.17117e-10,
1.300000e-01,1.000000e+00,0.000000e+00,1.300000e-01,1.000000e+00,-1.45509e-04,3.087734e-10,1.455088e-04,-3.10131e-10,
1.400000e-01,1.000000e+00,0.000000e+00,1.400000e-01,1.000000e+00,-1.44435e-04,3.019490e-10,1.444350e-04,-3.03281e-10,
1.500000e-01,1.000000e+00,0.000000e+00,1.500000e-01,1.000000e+00,-1.43362e-04,2.952590e-10,1.433615e-04,-2.96566e-10,
1.600000e-01,1.000000e+00,0.000000e+00,1.600000e-01,1.000000e+00,-1.42288e-04,2.887011e-10,1.422880e-04,-2.89984e-10,
1.700000e-01,1.000000e+00,0.000000e+00,1.700000e-01,1.000000e+00,-1.41214e-04,2.822733e-10,1.412145e-04,-2.83532e-10,
1.800000e-01,1.000000e+00,0.000000e+00,1.800000e-01,1.000000e+00,-1.40141e-04,2.759734e-10,1.401406e-04,-2.77208e-10,
1.900000e-01,1.000000e+00,0.000000e+00,1.900000e-01,1.000000e+00,-1.39066e-04,2.697993e-10,1.390661e-04,-2.71010e-10,
2.000000e-01,1.000000e+00,0.000000e+00,2.000000e-01,1.000000e+00,-1.37991e-04,2.637490e-10,1.379909e-04,-2.64935e-10,
2.100000e-01,1.000000e+00,0.000000e+00,2.100000e-01,1.000000e+00,-1.36915e-04,2.578203e-10,1.369147e-04,-2.58983e-10,
2.200000e-01,1.000000e+00,0.000000e+00,2.200000e-01,1.000000e+00,-1.35837e-04,2.520114e-10,1.358372e-04,-2.53151e-10,
2.300000e-01,1.000000e+00,0.000000e+00,2.300000e-01,1.000000e+00,-1.34758e-04,2.463201e-10,1.347581e-04,-2.47437e-10,
2.400000e-01,1.000000e+00,0.000000e+00,2.400000e-01,1.000000e+00,-1.33677e-04,2.407445e-10,1.336772e-04,-2.41839e-10,
2.500000e-01,1.000000e+00,0.000000e+00,2.500000e-01,1.000000e+00,-1.32594e-04,2.352826e-10,1.325940e-04,-2.36354e-10,
2.600000e-01,1.000000e+00,0.000000e+00,2.600000e-01,1.000000e+00,-1.31508e-04,2.299325e-10,1.315081e-04,-2.30982e-10,
2.700000e-01,1.000000e+00,0.000000e+00,2.700000e-01,1.000000e+00,-1.30419e-04,2.246923e-10,1.304193e-04,-2.25720e-10,
2.800000e-01,1.000000e+00,0.000000e+00,2.800000e-01,1.000000e+00,-1.29327e-04,2.195601e-10,1.293269e-04,-2.20566e-10,
2.900000e-01,1.000000e+00,0.000000e+00,2.900000e-01,1.000000e+00,-1.28231e-04,2.145341e-10,1.282306e-04,-2.15518e-10,
3.000000e-01,1.000000e+00,0.000000e+00,3.000000e-01,1.000000e+00,-1.27130e-04,2.096122e-10,1.271297e-04,-2.10575e-10,
3.100000e-01,1.000000e+00,0.000000e+00,3.100000e-01,1.000000e+00,-1.26024e-04,2.047929e-10,1.260238e-04,-2.05735e-10,
3.200000e-01,1.000000e+00,0.000000e+00,3.200000e-01,1.000000e+00,-1.24912e-04,2.000742e-10,1.249121e-04,-2.00996e-10,
3.300000e-01,1.000000e+00,0.000000e+00,3.300000e-01,1.000000e+00,-1.23794e-04,1.954543e-10,1.237940e-04,-1.96356e-10,
3.400000e-01,1.000000e+00,0.000000e+00,3.400000e-01,1.000000e+00,-1.22669e-04,1.909315e-10,1.226688e-04,-1.91813e-10,
3.500000e-01,1.000000e+00,0.000000e+00,3.500000e-01,1.000000e+00,-1.21536e-04,1.865042e-10,1.215356e-04,-1.87366e-10,
3.600000e-01,1.000000e+00,0.000000e+00,3.600000e-01,1.000000e+00,-1.20394e-04,1.821704e-10,1.203936e-04,-1.83013e-10,
3.700000e-01,1.000000e+00,0.000000e+00,3.700000e-01,1.000000e+00,-1.19242e-04,1.779287e-10,1.192419e-04,-1.78753e-10,
3.800000e-01,1.000000e+00,0.000000e+00,3.800000e-01,1.000000e+00,-1.18080e-04,1.737772e-10,1.180795e-04,-1.74583e-10,
3.900000e-01,1.000000e+00,0.000000e+00,3.900000e-01,1.000000e+00,-1.16905e-04,1.697144e-10,1.169054e-04,-1.70501e-10,
4.000000e-01,1.000000e+00,0.000000e+00,4.000000e-01,1.000000e+00,-1.15719e-04,1.657386e-10,1.157186e-04,-1.66508e-10,
4.100000e-01,1.000000e+00,0.000000e+00,4.100000e-01,1.000000e+00,-1.14518e-04,1.618482e-10,1.145179e-04,-1.62600e-10,
4.200000e-01,1.000000e+00,0.000000e+00,4.200000e-01,1.000000e+00,-1.13302e-04,1.580416e-10,1.133022e-04,-1.58777e-10,
4.300000e-01,1.000000e+00,0.000000e+00,4.300000e-01,1.000000e+00,-1.12070e-04,1.543173e-10,1.120705e-04,-1.55036e-10,
4.400000e-01,1.000000e+00,0.000000e+00,4.400000e-01,1.000000e+00,-1.10822e-04,1.506738e-10,1.108215e-04,-1.51376e-10,
4.500000e-01,1.000000e+00,0.000000e+00,4.500000e-01,1.000000e+00,-1.09554e-04,1.471095e-10,1.095543e-04,-1.47796e-10,
4.600000e-01,1.000000e+00,0.000000e+00,4.600000e-01,1.000000e+00,-1.08268e-04,1.436229e-10,1.082678e-04,-1.44293e-10,
4.700000e-01,1.000000e+00,0.000000e+00,4.700000e-01,1.000000e+00,-1.06961e-04,1.402125e-10,1.069608e-04,-1.40868e-10,
4.800000e-01,1.000000e+00,0.000000e+00,4.800000e-01,1.000000e+00,-1.05633e-04,1.368769e-10,1.056326e-04,-1.37518e-10,
4.900000e-01,1.000000e+00,0.000000e+00,4.900000e-01,1.000000e+00,-1.04282e-04,1.336147e-10,1.042823e-04,-1.34241e-10,
5.000000e-01,1.000000e+00,0.000000e+00,5.000000e-01,1.000000e+00,-1.02909e-04,1.304244e-10,1.029089e-04,-1.31037e-10,
5.100000e-01,1.000000e+00,0.000000e+00,5.100000e-01,1.000000e+00,-1.01512e-04,1.273047e-10,1.015119e-04,-1.27903e-10,
5.200000e-01,1.000000e+00,0.000000e+00,5.200000e-01,1.000000e+00,-1.00091e-04,1.242541e-10,1.000906e-04,-1.24839e-10,
5.300000e-01,1.000000e+00,0.000000e+00,5.300000e-01,1.000000e+00,-9.86444e-05,1.212714e-10,9.864437e-05,-1.21843e-10,
5.400000e-01,1.000000e+00,0.000000e+00,5.400000e-01,1.000000e+00,-9.71728e-05,1.183552e-10,9.717278e-05,-1.18914e-10,
5.500000e-01,1.000000e+00,0.000000e+00,5.500000e-01,1.000000e+00,-9.56754e-05,1.155042e-10,9.567540e-05,-1.16050e-10,
5.600000e-01,1.000000e+00,0.000000e+00,5.600000e-01,1.000000e+00,-9.41519e-05,1.127171e-10,9.415186e-05,-1.13251e-10,
5.700000e-01,1.000000e+00,0.000000e+00,5.700000e-01,1.000000e+00,-9.26019e-05,1.099926e-10,9.260185e-05,-1.10514e-10,
5.800000e-01,1.000000e+00,0.000000e+00,5.800000e-01,1.000000e+00,-9.10251e-05,1.073295e-10,9.102512e-05,-1.07839e-10,
5.900000e-01,1.000000e+00,0.000000e+00,5.900000e-01,1.000000e+00,-8.94214e-05,1.047265e-10,8.942143e-05,-1.05224e-10,
6.000000e-01,1.000000e+00,0.000000e+00,6.000000e-01,1.000000e+00,-8.77906e-05,1.021825e-10,8.779062e-05,-1.02668e-10,
6.100000e-01,1.000000e+00,0.000000e+00,6.100000e-01,1.000000e+00,-8.61325e-05,9.969629e-11,8.613252e-05,-1.00170e-10,
6.200000e-01,1.000000e+00,0.000000e+00,6.200000e-01,1.000000e+00,-8.44470e-05,9.726663e-11,8.444702e-05,-9.77290e-11,
6.300000e-01,1.000000e+00,0.000000e+00,6.300000e-01,1.000000e+00,-8.27340e-05,9.489240e-11,8.273401e-05,-9.53435e-11,
6.400000e-01,1.000000e+00,0.000000e+00,6.400000e-01,1.000000e+00,-8.09934e-05,9.257247e-11,8.099342e-05,-9.30123e-11,
6.500000e-01,1.000000e+00,0.000000e+00,6.500000e-01,1.000000e+00,-7.92252e-05,9.030572e-11,7.922518e-05,-9.07343e-11,
6.600000e-01,1.000000e+00,0.000000e+00,6.600000e-01,1.000000e+00,-7.74292e-05,8.809105e-11,7.742925e-05,-8.85085e-11,
6.700000e-01,1.000000e+00,0.000000e+00,6.700000e-01,1.000000e+00,-7.56056e-05,8.592739e-11,7.560558e-05,-8.63339e-11,
6.800000e-01,1.000000e+00,0.000000e+00,6.800000e-01,1.000000e+00,-7.37542e-05,8.381369e-11,7.375417e-05,-8.42093e-11,
6.900000e-01,1.000000e+00,0.000000e+00,6.900000e-01,1.000000e+00,-7.18750e-05,8.174889e-11,7.187499e-05,-8.21336e-11,
7.000000e-01,1.000000e+00,0.000000e+00,7.000000e-01,1.000000e+00,-6.99680e-05,7.973197e-11,6.996804e-05,-8.01059e-11,
7.100000e-01,1.000000e+00,0.000000e+00,7.100000e-01,1.000000e+00,-6.80333e-05,7.776194e-11,6.803332e-05,-7.81251e-11,
7.200000e-01,1.000000e+00,0.000000e+00,7.200000e-01,1.000000e+00,-6.60708e-05,7.583779e-11,6.607085e-05,-7.61902e-11,
7.300000e-01,1.000000e+00,0.000000e+00,7.300000e-01,1.000000e+00,-6.40806e-05,7.395857e-11,6.408063e-05,-7.43003e-11,
7.400000e-01,1.000000e+00,0.000000e+00,7.400000e-01,1.000000e+00,-6.20627e-05,7.212331e-11,6.206269e-05,-7.24544e-11,
7.500000e-01,1.000000e+00,0.000000e+00,7.500000e-01,1.000000e+00,-6.00170e-05,7.033108e-11,6.001704e-05,-7.06517e-11,
7.600000e-01,1.000000e+00,0.000000e+00,7.600000e-01,1.000000e+00,-5.79437e-05,6.858096e-11,5.794373e-05,-6.88911e-11,
7.700000e-01,1.000000e+00,0.000000e+00,7.700000e-01,1.000000e+00,-5.58428e-05,6.687205e-11,5.584278e-05,-6.71716e-11,
7.800000e-01,1.000000e+00,0.000000e+00,7.800000e-01,1.000000e+00,-5.37142e-05,6.520345e-11,5.371422e-05,-6.54925e-11,
7.900000e-01,1.000000e+00,0.000000e+00,7.900000e-01,1.000000e+00,-5.15581e-05,6.357431e-11,5.155809e-05,-6.38530e-11,
8.000000e-01,1.000000e+00,0.000000e+00,8.000000e-01,1.000000e+00,-4.93744e-05,6.198375e-11,4.937444e-05,-6.22520e-11,
8.100000e-01,1.000000e+00,0.000000e+00,8.100000e-01,1.000000e+00,-4.71633e-05,6.043095e-11,4.716331e-05,-6.06887e-11,
8.200000e-01,1.000000e+00,0.000000e+00,8.200000e-01,1.000000e+00,-4.49247e-05,5.891509e-11,4.492474e-05,-5.91625e-11,
8.300000e-01,1.000000e+00,0.000000e+00,8.300000e-01,1.000000e+00,-4.26588e-05,5.743534e-11,4.265877e-05,-5.76723e-11,
8.400000e-01,1.000000e+00,0.000000e+00,8.400000e-01,1.000000e+00,-4.03655e-05,5.599092e-11,4.036547e-05,-5.62175e-11,
8.500000e-01,1.000000e+00,0.000000e+00,8.500000e-01,1.000000e+00,-3.80449e-05,5.458106e-11,3.804487e-05,-5.47973e-11,
8.600000e-01,1.000000e+00,0.000000e+00,8.600000e-01,1.000000e+00,-3.56970e-05,5.320499e-11,3.569704e-05,-5.34107e-11,
8.700000e-01,1.000000e+00,0.000000e+00,8.700000e-01,1.000000e+00,-3.33220e-05,5.186195e-11,3.332202e-05,-5.20571e-11,
8.800000e-01,1.000000e+00,0.000000e+00,8.800000e-01,1.000000e+00,-3.09199e-05,5.055122e-11,3.091987e-05,-5.07358e-11,
8.900000e-01,1.000000e+00,0.000000e+00,8.900000e-01,1.000000e+00,-2.84907e-05,4.927208e-11,2.849065e-05,-4.94458e-11,
9.000000e-01,1.000000e+00,0.000000e+00,9.000000e-01,1.000000e+00,-2.60344e-05,4.802382e-11,2.603442e-05,-4.81865e-11,
9.100000e-01,1.000000e+00,0.000000e+00,9.100000e-01,1.000000e+00,-2.35512e-05,4.680575e-11,2.355123e-05,-4.69572e-11,
9.200000e-01,1.000000e+00,0.000000e+00,9.200000e-01,1.000000e+00,-2.10411e-05,4.561718e-11,2.104115e-05,-4.57570e-11,
9.300000e-01,1.000000e+00,0.000000e+00,9.300000e-01,1.000000e+00,-1.85042e-05,4.445747e-11,1.850424e-05,-4.45849e-11,
9.400000e-01,1.000000e+00,0.000000e+00,9.400000e-01,1.000000e+00,-1.59406e-05,4.332594e-11,1.594056e-05,-4.34404e-11,
9.500000e-01,1.000000e+00,0.000000e+00,9.500000e-01,1.000000e+00,-1.33502e-05,4.222197e-11,1.335017e-05,-4.23223e-11,
9.600000e-01,1.000000e+00,0.000000e+00,9.600000e-01,1.000000e+00,-1.07331e-05,4.114493e-11,1.073315e-05,-4.12295e-11,
9.700000e-01,1.000000e+00,0.000000e+00,9.700000e-01,1.000000e+00,-8.08955e-06,4.009421e-11,8.089551e-06,-4.01610e-11,
9.800000e-01,1.000000e+00,0.000000e+00,9.800000e-01,1.000000e+00,-5.41945e-06,3.906920e-11,5.419448e-06,-3.91151e-11,
9.900000e-01,1.000000e+00,0.000000e+00,9.900000e-01,1.000000e+00,-2.72291e-06,3.806931e-11,2.722908e-06,-3.80904e-11,
1.000000e+00,1.000000e+00,0.000000e+00,1.000000e+00,1.000000e+00,-4.70314e-15,3.709395e-11,-4.70358e-15,-3.70846e-11,
