Valim,Vd,Vg,Vs,Vb,Id,Ig,Is,Ib
0.000000e+00,0.000000e+00,1.000000e+00,1.000000e+00,1.000000e+00,1.002156e-08,-3.33067e-15,-1.00205e-08,-1.03959e-12,
1.000000e-02,1.000000e-02,1.000000e+00,1.000000e+00,1.000000e+00,9.311473e-09,-3.33067e-15,-9.31044e-09,-1.02934e-12,
2.000000e-02,2.000000e-02,1.000000e+00,1.000000e+00,1.000000e+00,8.655964e-09,-3.10862e-15,-8.65494e-09,-1.01921e-12,
3.000000e-02,3.000000e-02,1.000000e+00,1.000000e+00,1.000000e+00,8.050684e-09,-3.10862e-15,-8.04967e-09,-1.00908e-12,
4.000000e-02,4.000000e-02,1.000000e+00,1.000000e+00,1.000000e+00,7.491629e-09,-2.88658e-15,-7.49063e-09,-9.98979e-13,
5.000000e-02,5.000000e-02,1.000000e+00,1.000000e+00,1.000000e+00,6.975112e-09,-2.88658e-15,-6.97412e-09,-9.88959e-13,
6.000000e-02,6.000000e-02,1.000000e+00,1.000000e+00,1.000000e+00,6.497735e-09,-2.66454e-15,-6.49675e-09,-9.79022e-13,
7.000000e-02,7.000000e-02,1.000000e+00,1.000000e+00,1.000000e+00,6.056375e-09,-2.66454e-15,-6.05540e-09,-9.68947e-13,
8.000000e-02,8.000000e-02,1.000000e+00,1.000000e+00,1.000000e+00,5.648155e-09,-2.22045e-15,-5.64719e-09,-9.58844e-13,
9.000000e-02,9.000000e-02,1.000000e+00,1.000000e+00,1.000000e+00,5.270429e-09,-2.22045e-15,-5.26948e-09,-9.48991e-13,
1.000000e-01,1.000000e-01,1.000000e+00,1.000000e+00,1.000000e+00,4.920764e-09,-1.99840e-15,-4.91982e-09,-9.38943e-13,
1.100000e-01,1.100000e-01,1.000000e+00,1.000000e+00,1.000000e+00,4.596923e-09,-1.77636e-15,-4.59599e-09,-9.28924e-13,
1.200000e-01,1.200000e-01,1.000000e+00,1.000000e+00,1.000000e+00,4.296850e-09,-1.77636e-15,-4.29593e-09,-9.18959e-13,
1.300000e-01,1.300000e-01,1.000000e+00,1.000000e+00,1.000000e+00,4.018655e-09,-1.77636e-15,-4.01774e-09,-9.08912e-13,
1.400000e-01,1.400000e-01,1.000000e+00,1.000000e+00,1.000000e+00,3.760603e-09,-1.77636e-15,-3.75970e-09,-8.98948e-13,
1.500000e-01,1.500000e-01,1.000000e+00,1.000000e+00,1.000000e+00,3.521099e-09,-1.55431e-15,-3.52021e-09,-8.88956e-13,
1.600000e-01,1.600000e-01,1.000000e+00,1.000000e+00,1.000000e+00,3.298678e-09,-1.33227e-15,-3.29780e-09,-8.78880e-13,
1.700000e-01,1.700000e-01,1.000000e+00,1.000000e+00,1.000000e+00,3.091997e-09,-1.33227e-15,-3.09113e-09,-8.68972e-13,
1.800000e-01,1.800000e-01,1.000000e+00,1.000000e+00,1.000000e+00,2.899820e-09,-1.33227e-15,-2.89896e-09,-8.58924e-13,
1.900000e-01,1.900000e-01,1.000000e+00,1.000000e+00,1.000000e+00,2.721015e-09,-1.33227e-15,-2.72016e-09,-8.48932e-13,
2.000000e-01,2.000000e-01,1.000000e+00,1.000000e+00,1.000000e+00,2.554542e-09,-1.33227e-15,-2.55370e-09,-8.38912e-13,
2.100000e-01,2.100000e-01,1.000000e+00,1.000000e+00,1.000000e+00,2.399447e-09,-1.33227e-15,-2.39862e-09,-8.28837e-13,
2.200000e-01,2.200000e-01,1.000000e+00,1.000000e+00,1.000000e+00,2.254854e-09,-8.88178e-16,-2.25403e-09,-8.18845e-13,
2.300000e-01,2.300000e-01,1.000000e+00,1.000000e+00,1.000000e+00,2.119960e-09,-8.88178e-16,-2.11915e-09,-8.08936e-13,
2.400000e-01,2.400000e-01,1.000000e+00,1.000000e+00,1.000000e+00,1.994027e-09,-8.88178e-16,-1.99323e-09,-7.98861e-13,
2.500000e-01,2.500000e-01,1.000000e+00,1.000000e+00,1.000000e+00,1.876380e-09,-8.88178e-16,-1.87559e-09,-7.88869e-13,
2.600000e-01,2.600000e-01,1.000000e+00,1.000000e+00,1.000000e+00,1.766398e-09,-8.88178e-16,-1.76562e-09,-7.78932e-13,
2.700000e-01,2.700000e-01,1.000000e+00,1.000000e+00,1.000000e+00,1.663511e-09,-8.88178e-16,-1.66274e-09,-7.68913e-13,
2.800000e-01,2.800000e-01,1.000000e+00,1.000000e+00,1.000000e+00,1.567196e-09,-8.88178e-16,-1.56644e-09,-7.58948e-13,
2.900000e-01,2.900000e-01,1.000000e+00,1.000000e+00,1.000000e+00,1.476973e-09,-8.88178e-16,-1.47622e-09,-7.48901e-13,
3.000000e-01,3.000000e-01,1.000000e+00,1.000000e+00,1.000000e+00,1.392402e-09,-6.66134e-16,-1.39166e-09,-7.38937e-13,
3.100000e-01,3.100000e-01,1.000000e+00,1.000000e+00,1.000000e+00,1.313078e-09,-2.22045e-16,-1.31235e-09,-7.28889e-13,
3.200000e-01,3.200000e-01,1.000000e+00,1.000000e+00,1.000000e+00,1.238628e-09,-2.22045e-16,-1.23791e-09,-7.18925e-13,
3.300000e-01,3.300000e-01,1.000000e+00,1.000000e+00,1.000000e+00,1.168712e-09,-6.66134e-16,-1.16800e-09,-7.08877e-13,
3.400000e-01,3.400000e-01,1.000000e+00,1.000000e+00,1.000000e+00,1.103014e-09,-2.22045e-16,-1.10231e-09,-6.98885e-13,
3.500000e-01,3.500000e-01,1.000000e+00,1.000000e+00,1.000000e+00,1.041246e-09,-6.66134e-16,-1.04056e-09,-6.88866e-13,
3.600000e-01,3.600000e-01,1.000000e+00,1.000000e+00,1.000000e+00,9.831403e-10,-2.22045e-16,-9.82461e-10,-6.78790e-13,
3.700000e-01,3.700000e-01,1.000000e+00,1.000000e+00,1.000000e+00,9.284529e-10,-6.66134e-16,-9.27784e-10,-6.68854e-13,
3.800000e-01,3.800000e-01,1.000000e+00,1.000000e+00,1.000000e+00,8.769573e-10,-2.22045e-16,-8.76298e-10,-6.58917e-13,
3.900000e-01,3.900000e-01,1.000000e+00,1.000000e+00,1.000000e+00,8.284451e-10,-2.22045e-16,-8.27796e-10,-6.48870e-13,
4.000000e-01,4.000000e-01,1.000000e+00,1.000000e+00,1.000000e+00,7.827236e-10,-2.22045e-16,-7.82084e-10,-6.38933e-13,
4.100000e-01,4.100000e-01,1.000000e+00,1.000000e+00,1.000000e+00,7.396151e-10,-2.22045e-16,-7.38986e-10,-6.28969e-13,
4.200000e-01,4.200000e-01,1.000000e+00,1.000000e+00,1.000000e+00,6.989549e-10,-2.22045e-16,-6.98336e-10,-6.18922e-13,
4.300000e-01,4.300000e-01,1.000000e+00,1.000000e+00,1.000000e+00,6.605907e-10,-2.22045e-16,-6.59982e-10,-6.08874e-13,
4.400000e-01,4.400000e-01,1.000000e+00,1.000000e+00,1.000000e+00,6.243814e-10,-2.22045e-16,-6.23782e-10,-5.98993e-13,
4.500000e-01,4.500000e-01,1.000000e+00,1.000000e+00,1.000000e+00,5.901961e-10,-2.22045e-16,-5.89607e-10,-5.88973e-13,
4.600000e-01,4.600000e-01,1.000000e+00,1.000000e+00,1.000000e+00,5.579130e-10,-2.22045e-16,-5.57334e-10,-5.78926e-13,
4.700000e-01,4.700000e-01,1.000000e+00,1.000000e+00,1.000000e+00,5.274192e-10,-2.22045e-16,-5.26850e-10,-5.68962e-13,
4.800000e-01,4.800000e-01,1.000000e+00,1.000000e+00,1.000000e+00,4.986093e-10,-2.22045e-16,-4.98050e-10,-5.58859e-13,
4.900000e-01,4.900000e-01,1.000000e+00,1.000000e+00,1.000000e+00,4.713852e-10,-2.22045e-16,-4.70836e-10,-5.48894e-13,
5.000000e-01,5.000000e-01,1.000000e+00,1.000000e+00,1.000000e+00,4.456554e-10,0.000000e+00,-4.45116e-10,-5.38930e-13,
5.100000e-01,5.100000e-01,1.000000e+00,1.000000e+00,1.000000e+00,4.213343e-10,-2.22045e-16,-4.20805e-10,-5.28882e-13,
5.200000e-01,5.200000e-01,1.000000e+00,1.000000e+00,1.000000e+00,3.983419e-10,-2.22045e-16,-3.97823e-10,-5.18890e-13,
5.300000e-01,5.300000e-01,1.000000e+00,1.000000e+00,1.000000e+00,3.766032e-10,-2.22045e-16,-3.76094e-10,-5.08926e-13,
5.400000e-01,5.400000e-01,1.000000e+00,1.000000e+00,1.000000e+00,3.560481e-10,-2.22045e-16,-3.55549e-10,-4.98934e-13,
5.500000e-01,5.500000e-01,1.000000e+00,1.000000e+00,1.000000e+00,3.366107e-10,-2.22045e-16,-3.36122e-10,-4.88942e-13,
5.600000e-01,5.600000e-01,1.000000e+00,1.000000e+00,1.000000e+00,3.182290e-10,-2.22045e-16,-3.17750e-10,-4.78922e-13,
5.700000e-01,5.700000e-01,1.000000e+00,1.000000e+00,1.000000e+00,3.008447e-10,0.000000e+00,-3.00376e-10,-4.68930e-13,
5.800000e-01,5.800000e-01,1.000000e+00,1.000000e+00,1.000000e+00,2.844032e-10,0.000000e+00,-2.83944e-10,-4.58938e-13,
5.900000e-01,5.900000e-01,1.000000e+00,1.000000e+00,1.000000e+00,2.688527e-10,0.000000e+00,-2.68404e-10,-4.48919e-13,
6.000000e-01,6.000000e-01,1.000000e+00,1.000000e+00,1.000000e+00,2.541446e-10,0.000000e+00,-2.53706e-10,-4.38927e-13,
6.100000e-01,6.100000e-01,1.000000e+00,1.000000e+00,1.000000e+00,2.402330e-10,-2.22045e-16,-2.39804e-10,-4.28935e-13,
6.200000e-01,6.200000e-01,1.000000e+00,1.000000e+00,1.000000e+00,2.270745e-10,-2.22045e-16,-2.26656e-10,-4.18970e-13,
6.300000e-01,6.300000e-01,1.000000e+00,1.000000e+00,1.000000e+00,2.146283e-10,0.000000e+00,-2.14219e-10,-4.08923e-13,
6.400000e-01,6.400000e-01,1.000000e+00,1.000000e+00,1.000000e+00,2.028555e-10,-2.22045e-16,-2.02457e-10,-3.98903e-13,
6.500000e-01,6.500000e-01,1.000000e+00,1.000000e+00,1.000000e+00,1.917198e-10,-2.22045e-16,-1.91331e-10,-3.88911e-13,
6.600000e-01,6.600000e-01,1.000000e+00,1.000000e+00,1.000000e+00,1.811865e-10,-2.22045e-16,-1.80808e-10,-3.78919e-13,
6.700000e-01,6.700000e-01,1.000000e+00,1.000000e+00,1.000000e+00,1.712228e-10,-2.22045e-16,-1.70854e-10,-3.68899e-13,
6.800000e-01,6.800000e-01,1.000000e+00,1.000000e+00,1.000000e+00,1.617979e-10,-2.22045e-16,-1.61439e-10,-3.58935e-13,
6.900000e-01,6.900000e-01,1.000000e+00,1.000000e+00,1.000000e+00,1.528825e-10,-2.22045e-16,-1.52534e-10,-3.48943e-13,
7.000000e-01,7.000000e-01,1.000000e+00,1.000000e+00,1.000000e+00,1.444488e-10,-2.22045e-16,-1.44110e-10,-3.38868e-13,
7.100000e-01,7.100000e-01,1.000000e+00,1.000000e+00,1.000000e+00,1.364706e-10,0.000000e+00,-1.36142e-10,-3.28876e-13,
7.200000e-01,7.200000e-01,1.000000e+00,1.000000e+00,1.000000e+00,1.289230e-10,0.000000e+00,-1.28604e-10,-3.18884e-13,
7.300000e-01,7.300000e-01,1.000000e+00,1.000000e+00,1.000000e+00,1.217825e-10,0.000000e+00,-1.21474e-10,-3.08892e-13,
7.400000e-01,7.400000e-01,1.000000e+00,1.000000e+00,1.000000e+00,1.150267e-10,0.000000e+00,-1.14728e-10,-2.98928e-13,
7.500000e-01,7.500000e-01,1.000000e+00,1.000000e+00,1.000000e+00,1.086345e-10,0.000000e+00,-1.08346e-10,-2.88852e-13,
7.600000e-01,7.600000e-01,1.000000e+00,1.000000e+00,1.000000e+00,1.025858e-10,0.000000e+00,-1.02307e-10,-2.78916e-13,
7.700000e-01,7.700000e-01,1.000000e+00,1.000000e+00,1.000000e+00,9.686137e-11,0.000000e+00,-9.65925e-11,-2.68896e-13,
7.800000e-01,7.800000e-01,1.000000e+00,1.000000e+00,1.000000e+00,9.144320e-11,0.000000e+00,-9.11843e-11,-2.58848e-13,
7.900000e-01,7.900000e-01,1.000000e+00,1.000000e+00,1.000000e+00,8.631395e-11,-2.22045e-16,-8.60651e-11,-2.48884e-13,
8.000000e-01,8.000000e-01,1.000000e+00,1.000000e+00,1.000000e+00,8.145708e-11,-2.22045e-16,-8.12182e-11,-2.38809e-13,
8.100000e-01,8.100000e-01,1.000000e+00,1.000000e+00,1.000000e+00,7.685672e-11,-2.22045e-16,-7.66279e-11,-2.28761e-13,
8.200000e-01,8.200000e-01,1.000000e+00,1.000000e+00,1.000000e+00,7.249759e-11,-2.22045e-16,-7.22788e-11,-2.18742e-13,
8.300000e-01,8.300000e-01,1.000000e+00,1.000000e+00,1.000000e+00,6.836479e-11,-2.22045e-16,-6.81560e-11,-2.08750e-13,
8.400000e-01,8.400000e-01,1.000000e+00,1.000000e+00,1.000000e+00,6.444371e-11,-2.22045e-16,-6.42450e-11,-1.98730e-13,
8.500000e-01,8.500000e-01,1.000000e+00,1.000000e+00,1.000000e+00,6.071966e-11,-2.22045e-16,-6.05311e-11,-1.88571e-13,
8.600000e-01,8.600000e-01,1.000000e+00,1.000000e+00,1.000000e+00,5.717758e-11,-2.22045e-16,-5.69991e-11,-1.78468e-13,
8.700000e-01,8.700000e-01,1.000000e+00,1.000000e+00,1.000000e+00,5.380139e-11,-2.22045e-16,-5.36331e-11,-1.68310e-13,
8.800000e-01,8.800000e-01,1.000000e+00,1.000000e+00,1.000000e+00,5.057310e-11,-2.22045e-16,-5.04150e-11,-1.58096e-13,
8.900000e-01,8.900000e-01,1.000000e+00,1.000000e+00,1.000000e+00,4.747119e-11,-2.22045e-16,-4.73234e-11,-1.47826e-13,
9.000000e-01,9.000000e-01,1.000000e+00,1.000000e+00,1.000000e+00,4.446807e-11,0.000000e+00,-4.43307e-11,-1.37418e-13,
9.100000e-01,9.100000e-01,1.000000e+00,1.000000e+00,1.000000e+00,4.152559e-11,0.000000e+00,-4.13988e-11,-1.26843e-13,
9.200000e-01,9.200000e-01,1.000000e+00,1.000000e+00,1.000000e+00,3.858793e-11,0.000000e+00,-3.84719e-11,-1.15963e-13,
9.300000e-01,9.300000e-01,1.000000e+00,1.000000e+00,1.000000e+00,3.557095e-11,0.000000e+00,-3.54661e-11,-1.04916e-13,
9.400000e-01,9.400000e-01,1.000000e+00,1.000000e+00,1.000000e+00,3.235028e-11,0.000000e+00,-3.22569e-11,-9.32865e-14,
9.500000e-01,9.500000e-01,1.000000e+00,1.000000e+00,1.000000e+00,2.875723e-11,0.000000e+00,-2.86760e-11,-8.11851e-14,
9.600000e-01,9.600000e-01,1.000000e+00,1.000000e+00,1.000000e+00,2.459824e-11,0.000000e+00,-2.45300e-11,-6.82787e-14,
9.700000e-01,9.700000e-01,1.000000e+00,1.000000e+00,1.000000e+00,1.970224e-11,0.000000e+00,-1.96481e-11,-5.41789e-14,
9.800000e-01,9.800000e-01,1.000000e+00,1.000000e+00,1.000000e+00,1.396876e-11,0.000000e+00,-1.39302e-11,-3.85525e-14,
9.900000e-01,9.900000e-01,1.000000e+00,1.000000e+00,1.000000e+00,7.383360e-12,0.000000e+00,-7.36259e-12,-2.07612e-14,
1.000000e+00,1.000000e+00,1.000000e+00,1.000000e+00,1.000000e+00,-4.96348e-25,0.000000e+00,4.066830e-25,0.000000e+00,
