Valim,Vd,Vg,Vs,Vb,Id,Ig,Is,Ib
0.000000e+00,0.000000e+00,1.000000e+00,1.000000e+00,8.789575e-01,4.781265e-09,-8.88178e-16,-4.78126e-09,0.000000e+00,
1.000000e-02,1.000000e-02,1.000000e+00,1.000000e+00,8.793258e-01,4.439174e-09,-1.77636e-15,-4.43917e-09,0.000000e+00,
2.000000e-02,2.000000e-02,1.000000e+00,1.000000e+00,8.796964e-01,4.123486e-09,-8.88178e-16,-4.12348e-09,0.000000e+00,
3.000000e-02,3.000000e-02,1.000000e+00,1.000000e+00,8.800710e-01,3.832055e-09,-8.88178e-16,-3.83205e-09,0.000000e+00,
4.000000e-02,4.000000e-02,1.000000e+00,1.000000e+00,8.804493e-01,3.562959e-09,-8.88178e-16,-3.56296e-09,0.000000e+00,
5.000000e-02,5.000000e-02,1.000000e+00,1.000000e+00,8.808315e-01,3.314411e-09,-1.77636e-15,-3.31441e-09,0.000000e+00,
6.000000e-02,6.000000e-02,1.000000e+00,1.000000e+00,8.812170e-01,3.084782e-09,-8.88178e-16,-3.08478e-09,0.000000e+00,
7.000000e-02,7.000000e-02,1.000000e+00,1.000000e+00,8.816081e-01,2.872524e-09,-8.88178e-16,-2.87252e-09,0.000000e+00,
8.000000e-02,8.000000e-02,1.000000e+00,1.000000e+00,8.820041e-01,2.676263e-09,-8.88178e-16,-2.67626e-09,0.000000e+00,
9.000000e-02,9.000000e-02,1.000000e+00,1.000000e+00,8.824046e-01,2.494729e-09,-8.88178e-16,-2.49473e-09,0.000000e+00,
1.000000e-01,1.000000e-01,1.000000e+00,1.000000e+00,8.828062e-01,2.326791e-09,-1.77636e-15,-2.32679e-09,0.000000e+00,
1.100000e-01,1.100000e-01,1.000000e+00,1.000000e+00,8.832162e-01,2.171270e-09,-8.88178e-16,-2.17127e-09,0.000000e+00,
1.200000e-01,1.200000e-01,1.000000e+00,1.000000e+00,8.836307e-01,2.027230e-09,-8.88178e-16,-2.02723e-09,0.000000e+00,
1.300000e-01,1.300000e-01,1.000000e+00,1.000000e+00,8.840505e-01,1.893746e-09,-8.88178e-16,-1.89375e-09,0.000000e+00,
1.400000e-01,1.400000e-01,1.000000e+00,1.000000e+00,8.844752e-01,1.769987e-09,-8.88178e-16,-1.76999e-09,0.000000e+00,
1.500000e-01,1.500000e-01,1.000000e+00,1.000000e+00,8.849056e-01,1.655173e-09,-8.88178e-16,-1.65517e-09,0.000000e+00,
1.600000e-01,1.600000e-01,1.000000e+00,1.000000e+00,8.853414e-01,1.548603e-09,-8.88178e-16,-1.54860e-09,0.000000e+00,
1.700000e-01,1.700000e-01,1.000000e+00,1.000000e+00,8.857835e-01,1.449620e-09,0.000000e+00,-1.44962e-09,0.000000e+00,
1.800000e-01,1.800000e-01,1.000000e+00,1.000000e+00,8.862313e-01,1.357633e-09,-8.88178e-16,-1.35763e-09,0.000000e+00,
1.900000e-01,1.900000e-01,1.000000e+00,1.000000e+00,8.866834e-01,1.272106e-09,-8.88178e-16,-1.27211e-09,0.000000e+00,
2.000000e-01,2.000000e-01,1.000000e+00,1.000000e+00,8.871432e-01,1.192514e-09,-8.88178e-16,-1.19251e-09,0.000000e+00,
2.100000e-01,2.100000e-01,1.000000e+00,1.000000e+00,8.876085e-01,1.118411e-09,-8.88178e-16,-1.11841e-09,0.000000e+00,
2.200000e-01,2.200000e-01,1.000000e+00,1.000000e+00,8.880804e-01,1.049368e-09,-8.88178e-16,-1.04937e-09,0.000000e+00,
2.300000e-01,2.300000e-01,1.000000e+00,1.000000e+00,8.885594e-01,9.849959e-10,-8.88178e-16,-9.84996e-10,0.000000e+00,
2.400000e-01,2.400000e-01,1.000000e+00,1.000000e+00,8.890446e-01,9.249447e-10,-8.88178e-16,-9.24944e-10,0.000000e+00,
2.500000e-01,2.500000e-01,1.000000e+00,1.000000e+00,8.895380e-01,8.688783e-10,-8.88178e-16,-8.68878e-10,0.000000e+00,
2.600000e-01,2.600000e-01,1.000000e+00,1.000000e+00,8.900374e-01,8.165086e-10,-8.88178e-16,-8.16508e-10,0.000000e+00,
2.700000e-01,2.700000e-01,1.000000e+00,1.000000e+00,8.905449e-01,7.675521e-10,0.000000e+00,-7.67552e-10,0.000000e+00,
2.800000e-01,2.800000e-01,1.000000e+00,1.000000e+00,8.910599e-01,7.217597e-10,0.000000e+00,-7.21760e-10,0.000000e+00,
2.900000e-01,2.900000e-01,1.000000e+00,1.000000e+00,8.915814e-01,6.789046e-10,0.000000e+00,-6.78904e-10,0.000000e+00,
3.000000e-01,3.000000e-01,1.000000e+00,1.000000e+00,8.921131e-01,6.387603e-10,0.000000e+00,-6.38760e-10,0.000000e+00,
3.100000e-01,3.100000e-01,1.000000e+00,1.000000e+00,8.926539e-01,6.011379e-10,0.000000e+00,-6.01138e-10,0.000000e+00,
3.200000e-01,3.200000e-01,1.000000e+00,1.000000e+00,8.932003e-01,5.658701e-10,-8.88178e-16,-5.65870e-10,0.000000e+00,
3.300000e-01,3.300000e-01,1.000000e+00,1.000000e+00,8.937562e-01,5.327796e-10,-8.88178e-16,-5.32779e-10,0.000000e+00,
3.400000e-01,3.400000e-01,1.000000e+00,1.000000e+00,8.943217e-01,5.017151e-10,-8.88178e-16,-5.01715e-10,0.000000e+00,
3.500000e-01,3.500000e-01,1.000000e+00,1.000000e+00,8.948953e-01,4.725426e-10,-8.88178e-16,-4.72542e-10,0.000000e+00,
3.600000e-01,3.600000e-01,1.000000e+00,1.000000e+00,8.954806e-01,4.451243e-10,-8.88178e-16,-4.45124e-10,0.000000e+00,
3.700000e-01,3.700000e-01,1.000000e+00,1.000000e+00,8.960735e-01,4.193536e-10,-8.88178e-16,-4.19354e-10,0.000000e+00,
3.800000e-01,3.800000e-01,1.000000e+00,1.000000e+00,8.966790e-01,3.951099e-10,-8.88178e-16,-3.95110e-10,0.000000e+00,
3.900000e-01,3.900000e-01,1.000000e+00,1.000000e+00,8.972933e-01,3.723021e-10,-8.88178e-16,-3.72302e-10,0.000000e+00,
4.000000e-01,4.000000e-01,1.000000e+00,1.000000e+00,8.979187e-01,3.508329e-10,-8.88178e-16,-3.50833e-10,0.000000e+00,
4.100000e-01,4.100000e-01,1.000000e+00,1.000000e+00,8.985569e-01,3.306140e-10,-8.88178e-16,-3.30614e-10,0.000000e+00,
4.200000e-01,4.200000e-01,1.000000e+00,1.000000e+00,8.992069e-01,3.115689e-10,-8.88178e-16,-3.11569e-10,0.000000e+00,
4.300000e-01,4.300000e-01,1.000000e+00,1.000000e+00,8.998685e-01,2.936251e-10,-8.88178e-16,-2.93625e-10,0.000000e+00,
4.400000e-01,4.400000e-01,1.000000e+00,1.000000e+00,9.005404e-01,2.767170e-10,-8.88178e-16,-2.76717e-10,0.000000e+00,
4.500000e-01,4.500000e-01,1.000000e+00,1.000000e+00,9.012268e-01,2.607751e-10,-8.88178e-16,-2.60775e-10,0.000000e+00,
4.600000e-01,4.600000e-01,1.000000e+00,1.000000e+00,9.019267e-01,2.457434e-10,-8.88178e-16,-2.45743e-10,0.000000e+00,
4.700000e-01,4.700000e-01,1.000000e+00,1.000000e+00,9.026403e-01,2.315673e-10,-8.88178e-16,-2.31567e-10,0.000000e+00,
4.800000e-01,4.800000e-01,1.000000e+00,1.000000e+00,9.033629e-01,2.182027e-10,-8.88178e-16,-2.18203e-10,0.000000e+00,
4.900000e-01,4.900000e-01,1.000000e+00,1.000000e+00,9.041045e-01,2.055897e-10,-8.88178e-16,-2.05590e-10,0.000000e+00,
5.000000e-01,5.000000e-01,1.000000e+00,1.000000e+00,9.048622e-01,1.936889e-10,0.000000e+00,-1.93689e-10,0.000000e+00,
5.100000e-01,5.100000e-01,1.000000e+00,1.000000e+00,9.056397e-01,1.824557e-10,0.000000e+00,-1.82456e-10,0.000000e+00,
5.200000e-01,5.200000e-01,1.000000e+00,1.000000e+00,9.064284e-01,1.718615e-10,0.000000e+00,-1.71862e-10,0.000000e+00,
5.300000e-01,5.300000e-01,1.000000e+00,1.000000e+00,9.072378e-01,1.618606e-10,0.000000e+00,-1.61861e-10,0.000000e+00,
5.400000e-01,5.400000e-01,1.000000e+00,1.000000e+00,9.080654e-01,1.524224e-10,0.000000e+00,-1.52422e-10,0.000000e+00,
5.500000e-01,5.500000e-01,1.000000e+00,1.000000e+00,9.089122e-01,1.435150e-10,0.000000e+00,-1.43515e-10,0.000000e+00,
5.600000e-01,5.600000e-01,1.000000e+00,1.000000e+00,9.097783e-01,1.351090e-10,0.000000e+00,-1.35109e-10,0.000000e+00,
5.700000e-01,5.700000e-01,1.000000e+00,1.000000e+00,9.106648e-01,1.271759e-10,0.000000e+00,-1.27176e-10,0.000000e+00,
5.800000e-01,5.800000e-01,1.000000e+00,1.000000e+00,9.115698e-01,1.196913e-10,0.000000e+00,-1.19691e-10,0.000000e+00,
5.900000e-01,5.900000e-01,1.000000e+00,1.000000e+00,9.124913e-01,1.126317e-10,0.000000e+00,-1.12632e-10,0.000000e+00,
6.000000e-01,6.000000e-01,1.000000e+00,1.000000e+00,9.134466e-01,1.059629e-10,0.000000e+00,-1.05963e-10,0.000000e+00,
6.100000e-01,6.100000e-01,1.000000e+00,1.000000e+00,9.144213e-01,9.967298e-11,0.000000e+00,-9.96731e-11,0.000000e+00,
6.200000e-01,6.200000e-01,1.000000e+00,1.000000e+00,9.154281e-01,9.373415e-11,0.000000e+00,-9.37342e-11,0.000000e+00,
6.300000e-01,6.300000e-01,1.000000e+00,1.000000e+00,9.164555e-01,8.813379e-11,0.000000e+00,-8.81338e-11,0.000000e+00,
6.400000e-01,6.400000e-01,1.000000e+00,1.000000e+00,9.175155e-01,8.284759e-11,0.000000e+00,-8.28476e-11,0.000000e+00,
6.500000e-01,6.500000e-01,1.000000e+00,1.000000e+00,9.186065e-01,7.785967e-11,0.000000e+00,-7.78597e-11,0.000000e+00,
6.600000e-01,6.600000e-01,1.000000e+00,1.000000e+00,9.197248e-01,7.315569e-11,0.000000e+00,-7.31557e-11,0.000000e+00,
6.700000e-01,6.700000e-01,1.000000e+00,1.000000e+00,9.208812e-01,6.871597e-11,0.000000e+00,-6.87159e-11,0.000000e+00,
6.800000e-01,6.800000e-01,1.000000e+00,1.000000e+00,9.220569e-01,6.453371e-11,0.000000e+00,-6.45337e-11,0.000000e+00,
6.900000e-01,6.900000e-01,1.000000e+00,1.000000e+00,9.232714e-01,6.058761e-11,0.000000e+00,-6.05876e-11,0.000000e+00,
7.000000e-01,7.000000e-01,1.000000e+00,1.000000e+00,9.245404e-01,5.686007e-11,0.000000e+00,-5.68600e-11,0.000000e+00,
7.100000e-01,7.100000e-01,1.000000e+00,1.000000e+00,9.258183e-01,5.335431e-11,0.000000e+00,-5.33544e-11,0.000000e+00,
7.200000e-01,7.200000e-01,1.000000e+00,1.000000e+00,9.271632e-01,5.004040e-11,0.000000e+00,-5.00404e-11,0.000000e+00,
7.300000e-01,7.300000e-01,1.000000e+00,1.000000e+00,9.285538e-01,4.691496e-11,0.000000e+00,-4.69149e-11,0.000000e+00,
7.400000e-01,7.400000e-01,1.000000e+00,1.000000e+00,9.299737e-01,4.397230e-11,0.000000e+00,-4.39723e-11,0.000000e+00,
7.500000e-01,7.500000e-01,1.000000e+00,1.000000e+00,9.314588e-01,4.119350e-11,0.000000e+00,-4.11934e-11,0.000000e+00,
7.600000e-01,7.600000e-01,1.000000e+00,1.000000e+00,9.329789e-01,3.857725e-11,0.000000e+00,-3.85772e-11,0.000000e+00,
7.700000e-01,7.700000e-01,1.000000e+00,1.000000e+00,9.345575e-01,3.610949e-11,0.000000e+00,-3.61095e-11,0.000000e+00,
7.800000e-01,7.800000e-01,1.000000e+00,1.000000e+00,9.361999e-01,3.378144e-11,0.000000e+00,-3.37814e-11,0.000000e+00,
7.900000e-01,7.900000e-01,1.000000e+00,1.000000e+00,9.379060e-01,3.158590e-11,0.000000e+00,-3.15859e-11,0.000000e+00,
8.000000e-01,8.000000e-01,1.000000e+00,1.000000e+00,9.396772e-01,2.951566e-11,0.000000e+00,-2.95156e-11,0.000000e+00,
8.100000e-01,8.100000e-01,1.000000e+00,1.000000e+00,9.414874e-01,2.756820e-11,0.000000e+00,-2.75683e-11,0.000000e+00,
8.200000e-01,8.200000e-01,1.000000e+00,1.000000e+00,9.434169e-01,2.572419e-11,0.000000e+00,-2.57242e-11,0.000000e+00,
8.300000e-01,8.300000e-01,1.000000e+00,1.000000e+00,9.453936e-01,2.398905e-11,0.000000e+00,-2.39891e-11,0.000000e+00,
8.400000e-01,8.400000e-01,1.000000e+00,1.000000e+00,9.474658e-01,2.234972e-11,0.000000e+00,-2.23498e-11,0.000000e+00,
8.500000e-01,8.500000e-01,1.000000e+00,1.000000e+00,9.496350e-01,2.080065e-11,0.000000e+00,-2.08007e-11,0.000000e+00,
8.600000e-01,8.600000e-01,1.000000e+00,1.000000e+00,9.518887e-01,1.933775e-11,0.000000e+00,-1.93378e-11,0.000000e+00,
8.700000e-01,8.700000e-01,1.000000e+00,1.000000e+00,9.542865e-01,1.794873e-11,0.000000e+00,-1.79487e-11,0.000000e+00,
8.800000e-01,8.800000e-01,1.000000e+00,1.000000e+00,9.567709e-01,1.663385e-11,0.000000e+00,-1.66338e-11,0.000000e+00,
8.900000e-01,8.900000e-01,1.000000e+00,1.000000e+00,9.593441e-01,1.538526e-11,0.000000e+00,-1.53853e-11,0.000000e+00,
9.000000e-01,9.000000e-01,1.000000e+00,1.000000e+00,9.620851e-01,1.418718e-11,0.000000e+00,-1.41872e-11,0.000000e+00,
9.100000e-01,9.100000e-01,1.000000e+00,1.000000e+00,9.650073e-01,1.302799e-11,0.000000e+00,-1.30279e-11,0.000000e+00,
9.200000e-01,9.200000e-01,1.000000e+00,1.000000e+00,9.680436e-01,1.189705e-11,0.000000e+00,-1.18970e-11,0.000000e+00,
9.300000e-01,9.300000e-01,1.000000e+00,1.000000e+00,9.712610e-01,1.076604e-11,0.000000e+00,-1.07660e-11,0.000000e+00,
9.400000e-01,9.400000e-01,1.000000e+00,1.000000e+00,9.746720e-01,9.601202e-12,0.000000e+00,-9.60119e-12,0.000000e+00,
9.500000e-01,9.500000e-01,1.000000e+00,1.000000e+00,9.783070e-01,8.358179e-12,0.000000e+00,-8.35812e-12,0.000000e+00,
9.600000e-01,9.600000e-01,1.000000e+00,1.000000e+00,9.821322e-01,6.993277e-12,0.000000e+00,-6.99327e-12,0.000000e+00,
9.700000e-01,9.700000e-01,1.000000e+00,1.000000e+00,9.862126e-01,5.470307e-12,0.000000e+00,-5.47030e-12,0.000000e+00,
9.800000e-01,9.800000e-01,1.000000e+00,1.000000e+00,9.905498e-01,3.781427e-12,0.000000e+00,-3.78140e-12,0.000000e+00,
9.900000e-01,9.900000e-01,1.000000e+00,1.000000e+00,9.951519e-01,1.945391e-12,0.000000e+00,-1.94534e-12,0.000000e+00,
1.000000e+00,1.000000e+00,1.000000e+00,1.000000e+00,1.000008e+00,1.200507e-17,0.000000e+00,1.200507e-17,0.000000e+00,
