Valim,Vd,Vg,Vs,Vb,Id,Ig,Is,Ib
0.000000e+00,0.000000e+00,1.000000e+00,0.000000e+00,1.000000e+00,1.016545e-12,-1.77636e-15,1.016545e-12,-2.03132e-12,
1.000000e-02,0.000000e+00,1.000000e+00,1.000000e-02,1.000000e+00,1.016545e-12,-2.66454e-15,1.006495e-12,-2.02136e-12,
2.000000e-02,0.000000e+00,1.000000e+00,2.000000e-02,1.000000e+00,1.016545e-12,-8.88178e-16,9.964469e-13,-2.01136e-12,
3.000000e-02,0.000000e+00,1.000000e+00,3.000000e-02,1.000000e+00,1.016545e-12,-8.88178e-16,9.864017e-13,-2.00132e-12,
4.000000e-02,0.000000e+00,1.000000e+00,4.000000e-02,1.000000e+00,1.016545e-12,-1.77636e-15,9.763589e-13,-1.99135e-12,
5.000000e-02,0.000000e+00,1.000000e+00,5.000000e-02,1.000000e+00,1.016545e-12,-1.77636e-15,9.663184e-13,-1.98136e-12,
6.000000e-02,0.000000e+00,1.000000e+00,6.000000e-02,1.000000e+00,1.016545e-12,-1.77636e-15,9.562799e-13,-1.97131e-12,
7.000000e-02,0.000000e+00,1.000000e+00,7.000000e-02,1.000000e+00,1.016545e-12,-1.77636e-15,9.462435e-13,-1.96129e-12,
8.000000e-02,0.000000e+00,1.000000e+00,8.000000e-02,1.000000e+00,1.016545e-12,-1.77636e-15,9.362091e-13,-1.95127e-12,
9.000000e-02,0.000000e+00,1.000000e+00,9.000000e-02,1.000000e+00,1.016545e-12,-2.66454e-15,9.261764e-13,-1.94134e-12,
1.000000e-01,0.000000e+00,1.000000e+00,1.000000e-01,1.000000e+00,1.016545e-12,-2.66454e-15,9.161456e-13,-1.93134e-12,
1.100000e-01,0.000000e+00,1.000000e+00,1.100000e-01,1.000000e+00,1.016545e-12,-1.77636e-15,9.061163e-13,-1.92130e-12,
1.200000e-01,0.000000e+00,1.000000e+00,1.200000e-01,1.000000e+00,1.016545e-12,-1.77636e-15,8.960887e-13,-1.91130e-12,
1.300000e-01,0.000000e+00,1.000000e+00,1.300000e-01,1.000000e+00,1.016545e-12,-1.77636e-15,8.860625e-13,-1.90137e-12,
1.400000e-01,0.000000e+00,1.000000e+00,1.400000e-01,1.000000e+00,1.016545e-12,-1.77636e-15,8.760377e-13,-1.89129e-12,
1.500000e-01,0.000000e+00,1.000000e+00,1.500000e-01,1.000000e+00,1.016545e-12,-1.77636e-15,8.660143e-13,-1.88130e-12,
1.600000e-01,0.000000e+00,1.000000e+00,1.600000e-01,1.000000e+00,1.016545e-12,-2.66454e-15,8.559921e-13,-1.87134e-12,
1.700000e-01,0.000000e+00,1.000000e+00,1.700000e-01,1.000000e+00,1.016545e-12,-1.77636e-15,8.459711e-13,-1.86137e-12,
1.800000e-01,0.000000e+00,1.000000e+00,1.800000e-01,1.000000e+00,1.016545e-12,-1.77636e-15,8.359513e-13,-1.85135e-12,
1.900000e-01,0.000000e+00,1.000000e+00,1.900000e-01,1.000000e+00,1.016545e-12,-1.77636e-15,8.259326e-13,-1.84130e-12,
2.000000e-01,0.000000e+00,1.000000e+00,2.000000e-01,1.000000e+00,1.016545e-12,-1.77636e-15,8.159149e-13,-1.83131e-12,
2.100000e-01,0.000000e+00,1.000000e+00,2.100000e-01,1.000000e+00,1.016545e-12,-1.77636e-15,8.058982e-13,-1.82132e-12,
2.200000e-01,0.000000e+00,1.000000e+00,2.200000e-01,1.000000e+00,1.016545e-12,-1.77636e-15,7.958823e-13,-1.81130e-12,
2.300000e-01,0.000000e+00,1.000000e+00,2.300000e-01,1.000000e+00,1.016545e-12,-1.77636e-15,7.858674e-13,-1.80131e-12,
2.400000e-01,0.000000e+00,1.000000e+00,2.400000e-01,1.000000e+00,1.016545e-12,-1.77636e-15,7.758533e-13,-1.79132e-12,
2.500000e-01,0.000000e+00,1.000000e+00,2.500000e-01,1.000000e+00,1.016545e-12,-1.77636e-15,7.658400e-13,-1.78130e-12,
2.600000e-01,0.000000e+00,1.000000e+00,2.600000e-01,1.000000e+00,1.016545e-12,-1.77636e-15,7.558274e-13,-1.77136e-12,
2.700000e-01,0.000000e+00,1.000000e+00,2.700000e-01,1.000000e+00,1.016545e-12,-8.88178e-16,7.458155e-13,-1.76131e-12,
2.800000e-01,0.000000e+00,1.000000e+00,2.800000e-01,1.000000e+00,1.016545e-12,-1.77636e-15,7.358043e-13,-1.75135e-12,
2.900000e-01,0.000000e+00,1.000000e+00,2.900000e-01,1.000000e+00,1.016545e-12,-1.77636e-15,7.257937e-13,-1.74136e-12,
3.000000e-01,0.000000e+00,1.000000e+00,3.000000e-01,1.000000e+00,1.016545e-12,-1.77636e-15,7.157838e-13,-1.73131e-12,
3.100000e-01,0.000000e+00,1.000000e+00,3.100000e-01,1.000000e+00,1.016545e-12,-1.77636e-15,7.057744e-13,-1.72135e-12,
3.200000e-01,0.000000e+00,1.000000e+00,3.200000e-01,1.000000e+00,1.016545e-12,-1.77636e-15,6.957655e-13,-1.71138e-12,
3.300000e-01,0.000000e+00,1.000000e+00,3.300000e-01,1.000000e+00,1.016545e-12,-1.77636e-15,6.857571e-13,-1.70131e-12,
3.400000e-01,0.000000e+00,1.000000e+00,3.400000e-01,1.000000e+00,1.016545e-12,-1.77636e-15,6.757492e-13,-1.69129e-12,
3.500000e-01,0.000000e+00,1.000000e+00,3.500000e-01,1.000000e+00,1.016545e-12,-1.77636e-15,6.657417e-13,-1.68129e-12,
3.600000e-01,0.000000e+00,1.000000e+00,3.600000e-01,1.000000e+00,1.016545e-12,-1.77636e-15,6.557346e-13,-1.67133e-12,
3.700000e-01,0.000000e+00,1.000000e+00,3.700000e-01,1.000000e+00,1.016545e-12,-1.77636e-15,6.457279e-13,-1.66134e-12,
3.800000e-01,0.000000e+00,1.000000e+00,3.800000e-01,1.000000e+00,1.016546e-12,-1.77636e-15,6.357216e-13,-1.65129e-12,
3.900000e-01,0.000000e+00,1.000000e+00,3.900000e-01,1.000000e+00,1.016546e-12,-1.77636e-15,6.257155e-13,-1.64130e-12,
4.000000e-01,0.000000e+00,1.000000e+00,4.000000e-01,1.000000e+00,1.016546e-12,-1.77636e-15,6.157097e-13,-1.63136e-12,
4.100000e-01,0.000000e+00,1.000000e+00,4.100000e-01,1.000000e+00,1.016547e-12,-1.77636e-15,6.057040e-13,-1.62129e-12,
4.200000e-01,0.000000e+00,1.000000e+00,4.200000e-01,1.000000e+00,1.016547e-12,-1.77636e-15,5.956985e-13,-1.61129e-12,
4.300000e-01,0.000000e+00,1.000000e+00,4.300000e-01,1.000000e+00,1.016548e-12,-1.77636e-15,5.856929e-13,-1.60133e-12,
4.400000e-01,0.000000e+00,1.000000e+00,4.400000e-01,1.000000e+00,1.016550e-12,-1.77636e-15,5.756871e-13,-1.59137e-12,
4.500000e-01,0.000000e+00,1.000000e+00,4.500000e-01,1.000000e+00,1.016552e-12,-1.77636e-15,5.656810e-13,-1.58135e-12,
4.600000e-01,0.000000e+00,1.000000e+00,4.600000e-01,1.000000e+00,1.016555e-12,-1.77636e-15,5.556742e-13,-1.57133e-12,
4.700000e-01,0.000000e+00,1.000000e+00,4.700000e-01,1.000000e+00,1.016559e-12,-1.77636e-15,5.456663e-13,-1.56131e-12,
4.800000e-01,0.000000e+00,1.000000e+00,4.800000e-01,1.000000e+00,1.016565e-12,-1.77636e-15,5.356568e-13,-1.55131e-12,
4.900000e-01,0.000000e+00,1.000000e+00,4.900000e-01,1.000000e+00,1.016574e-12,-8.88178e-16,5.256447e-13,-1.54129e-12,
5.000000e-01,0.000000e+00,1.000000e+00,5.000000e-01,1.000000e+00,1.016587e-12,-8.88178e-16,5.156290e-13,-1.53130e-12,
5.100000e-01,0.000000e+00,1.000000e+00,5.100000e-01,1.000000e+00,1.016605e-12,-8.88178e-16,5.056079e-13,-1.52131e-12,
5.200000e-01,0.000000e+00,1.000000e+00,5.200000e-01,1.000000e+00,1.016632e-12,-8.88178e-16,4.955789e-13,-1.51129e-12,
5.300000e-01,0.000000e+00,1.000000e+00,5.300000e-01,1.000000e+00,1.016670e-12,-8.88178e-16,4.855388e-13,-1.50135e-12,
5.400000e-01,0.000000e+00,1.000000e+00,5.400000e-01,1.000000e+00,1.016724e-12,-8.88178e-16,4.754823e-13,-1.49131e-12,
5.500000e-01,0.000000e+00,1.000000e+00,5.500000e-01,1.000000e+00,1.016801e-12,-8.88178e-16,4.654025e-13,-1.48134e-12,
5.600000e-01,0.000000e+00,1.000000e+00,5.600000e-01,1.000000e+00,1.016913e-12,-8.88178e-16,4.552892e-13,-1.47138e-12,
5.700000e-01,0.000000e+00,1.000000e+00,5.700000e-01,1.000000e+00,1.017072e-12,-8.88178e-16,4.451278e-13,-1.46130e-12,
5.800000e-01,0.000000e+00,1.000000e+00,5.800000e-01,1.000000e+00,1.017301e-12,-8.88178e-16,4.348974e-13,-1.45134e-12,
5.900000e-01,0.000000e+00,1.000000e+00,5.900000e-01,1.000000e+00,1.017629e-12,-8.88178e-16,4.245681e-13,-1.44137e-12,
6.000000e-01,0.000000e+00,1.000000e+00,6.000000e-01,1.000000e+00,1.018098e-12,-8.88178e-16,4.140972e-13,-1.43130e-12,
6.100000e-01,0.000000e+00,1.000000e+00,6.100000e-01,1.000000e+00,1.018770e-12,-8.88178e-16,4.034235e-13,-1.42134e-12,
6.200000e-01,0.000000e+00,1.000000e+00,6.200000e-01,1.000000e+00,1.019733e-12,-8.88178e-16,3.924592e-13,-1.41129e-12,
6.300000e-01,0.000000e+00,1.000000e+00,6.300000e-01,1.000000e+00,1.021112e-12,-8.88178e-16,3.810789e-13,-1.40132e-12,
6.400000e-01,0.000000e+00,1.000000e+00,6.400000e-01,1.000000e+00,1.023087e-12,-8.88178e-16,3.691028e-13,-1.39133e-12,
6.500000e-01,0.000000e+00,1.000000e+00,6.500000e-01,1.000000e+00,1.025915e-12,-8.88178e-16,3.562739e-13,-1.38128e-12,
6.600000e-01,0.000000e+00,1.000000e+00,6.600000e-01,1.000000e+00,1.029964e-12,-8.88178e-16,3.422239e-13,-1.37129e-12,
6.700000e-01,0.000000e+00,1.000000e+00,6.700000e-01,1.000000e+00,1.035761e-12,-8.88178e-16,3.264258e-13,-1.36136e-12,
6.800000e-01,0.000000e+00,1.000000e+00,6.800000e-01,1.000000e+00,1.044061e-12,-8.88178e-16,3.081251e-13,-1.35131e-12,
6.900000e-01,0.000000e+00,1.000000e+00,6.900000e-01,1.000000e+00,1.055943e-12,-8.88178e-16,2.862415e-13,-1.34129e-12,
7.000000e-01,0.000000e+00,1.000000e+00,7.000000e-01,1.000000e+00,1.072955e-12,-8.88178e-16,2.592285e-13,-1.33132e-12,
7.100000e-01,0.000000e+00,1.000000e+00,7.100000e-01,1.000000e+00,1.097311e-12,-8.88178e-16,2.248715e-13,-1.32122e-12,
7.200000e-01,0.000000e+00,1.000000e+00,7.200000e-01,1.000000e+00,1.132182e-12,-8.88178e-16,1.799999e-13,-1.31137e-12,
7.300000e-01,0.000000e+00,1.000000e+00,7.300000e-01,1.000000e+00,1.182107e-12,-8.88178e-16,1.200730e-13,-1.30129e-12,
7.400000e-01,0.000000e+00,1.000000e+00,7.400000e-01,1.000000e+00,1.253590e-12,-8.88178e-16,3.858875e-14,-1.29130e-12,
7.500000e-01,0.000000e+00,1.000000e+00,7.500000e-01,1.000000e+00,1.355942e-12,-8.88178e-16,-7.37651e-14,-1.28131e-12,
7.600000e-01,0.000000e+00,1.000000e+00,7.600000e-01,1.000000e+00,1.502500e-12,-8.88178e-16,-2.30325e-13,-1.27121e-12,
7.700000e-01,0.000000e+00,1.000000e+00,7.700000e-01,1.000000e+00,1.712365e-12,-8.88178e-16,-4.50193e-13,-1.26130e-12,
7.800000e-01,0.000000e+00,1.000000e+00,7.800000e-01,1.000000e+00,2.012894e-12,-8.88178e-16,-7.60726e-13,-1.25128e-12,
7.900000e-01,0.000000e+00,1.000000e+00,7.900000e-01,1.000000e+00,2.443269e-12,-8.88178e-16,-1.20111e-12,-1.24126e-12,
8.000000e-01,0.000000e+00,1.000000e+00,8.000000e-01,1.000000e+00,3.059605e-12,-8.88178e-16,-1.82745e-12,-1.23135e-12,
8.100000e-01,0.000000e+00,1.000000e+00,8.100000e-01,1.000000e+00,3.942262e-12,-8.88178e-16,-2.72012e-12,-1.22125e-12,
8.200000e-01,0.000000e+00,1.000000e+00,8.200000e-01,1.000000e+00,5.206299e-12,-8.88178e-16,-3.99417e-12,-1.21123e-12,
8.300000e-01,0.000000e+00,1.000000e+00,8.300000e-01,1.000000e+00,7.016438e-12,-8.88178e-16,-5.81432e-12,-1.20126e-12,
8.400000e-01,0.000000e+00,1.000000e+00,8.400000e-01,1.000000e+00,9.608425e-12,-8.88178e-16,-8.41633e-12,-1.19119e-12,
8.500000e-01,0.000000e+00,1.000000e+00,8.500000e-01,1.000000e+00,1.331956e-11,-8.88178e-16,-1.21375e-11,-1.18114e-12,
8.600000e-01,0.000000e+00,1.000000e+00,8.600000e-01,1.000000e+00,1.863221e-11,-8.88178e-16,-1.74602e-11,-1.17117e-12,
8.700000e-01,0.000000e+00,1.000000e+00,8.700000e-01,1.000000e+00,2.623588e-11,-8.88178e-16,-2.50739e-11,-1.16104e-12,
8.800000e-01,0.000000e+00,1.000000e+00,8.800000e-01,1.000000e+00,3.711551e-11,-8.88178e-16,-3.59637e-11,-1.15094e-12,
8.900000e-01,0.000000e+00,1.000000e+00,8.900000e-01,1.000000e+00,5.267694e-11,-8.88178e-16,-5.15352e-11,-1.14087e-12,
9.000000e-01,0.000000e+00,1.000000e+00,9.000000e-01,1.000000e+00,7.492491e-11,-8.88178e-16,-7.37933e-11,-1.13065e-12,
9.100000e-01,0.000000e+00,1.000000e+00,9.100000e-01,1.000000e+00,1.067151e-10,-8.88178e-16,-1.05594e-10,-1.12041e-12,
9.200000e-01,0.000000e+00,1.000000e+00,9.200000e-01,1.000000e+00,1.521098e-10,-8.88178e-16,-1.50999e-10,-1.11003e-12,
9.300000e-01,0.000000e+00,1.000000e+00,9.300000e-01,1.000000e+00,2.168796e-10,-8.88178e-16,-2.15779e-10,-1.09968e-12,
9.400000e-01,0.000000e+00,1.000000e+00,9.400000e-01,1.000000e+00,3.092062e-10,-8.88178e-16,-3.08116e-10,-1.08905e-12,
9.500000e-01,0.000000e+00,1.000000e+00,9.500000e-01,1.000000e+00,4.406677e-10,-8.88178e-16,-4.39589e-10,-1.07819e-12,
9.600000e-01,0.000000e+00,1.000000e+00,9.600000e-01,1.000000e+00,6.276099e-10,-8.88178e-16,-6.26542e-10,-1.06695e-12,
9.700000e-01,0.000000e+00,1.000000e+00,9.700000e-01,1.000000e+00,8.930501e-10,-8.88178e-16,-8.91994e-10,-1.05532e-12,
9.800000e-01,0.000000e+00,1.000000e+00,9.800000e-01,1.000000e+00,1.269304e-09,-8.88178e-16,-1.26826e-09,-1.04317e-12,
9.900000e-01,0.000000e+00,1.000000e+00,9.900000e-01,1.000000e+00,1.801596e-09,-8.88178e-16,-1.80056e-09,-1.03006e-12,
1.000000e+00,0.000000e+00,1.000000e+00,1.000000e+00,1.000000e+00,2.552985e-09,-8.88178e-16,-2.55197e-09,-1.01591e-12,
