Valim,Vd,Vg,Vs,Vb,Id,Ig,Is,Ib
0.000000e+00,0.000000e+00,1.000000e+00,0.000000e+00,1.000000e+00,1.055430e-12,-9.76996e-15,1.055430e-12,-2.10115e-12,
1.000000e-02,0.000000e+00,1.000000e+00,1.000000e-02,1.000000e+00,1.055430e-12,-9.54792e-15,1.045160e-12,-2.09122e-12,
2.000000e-02,0.000000e+00,1.000000e+00,2.000000e-02,1.000000e+00,1.055430e-12,-9.32587e-15,1.034905e-12,-2.08122e-12,
3.000000e-02,0.000000e+00,1.000000e+00,3.000000e-02,1.000000e+00,1.055430e-12,-9.10383e-15,1.024662e-12,-2.07118e-12,
4.000000e-02,0.000000e+00,1.000000e+00,4.000000e-02,1.000000e+00,1.055430e-12,-8.88178e-15,1.014433e-12,-2.06118e-12,
5.000000e-02,0.000000e+00,1.000000e+00,5.000000e-02,1.000000e+00,1.055430e-12,-8.43769e-15,1.004215e-12,-2.05116e-12,
6.000000e-02,0.000000e+00,1.000000e+00,6.000000e-02,1.000000e+00,1.055430e-12,-8.43769e-15,9.940089e-13,-2.04117e-12,
7.000000e-02,0.000000e+00,1.000000e+00,7.000000e-02,1.000000e+00,1.055430e-12,-7.99361e-15,9.838137e-13,-2.03115e-12,
8.000000e-02,0.000000e+00,1.000000e+00,8.000000e-02,1.000000e+00,1.055430e-12,-7.99361e-15,9.736289e-13,-2.02119e-12,
9.000000e-02,0.000000e+00,1.000000e+00,9.000000e-02,1.000000e+00,1.055430e-12,-7.77156e-15,9.634539e-13,-2.01117e-12,
1.000000e-01,0.000000e+00,1.000000e+00,1.000000e-01,1.000000e+00,1.055430e-12,-7.77156e-15,9.532882e-13,-2.00115e-12,
1.100000e-01,0.000000e+00,1.000000e+00,1.100000e-01,1.000000e+00,1.055430e-12,-7.54952e-15,9.431314e-13,-1.99116e-12,
1.200000e-01,0.000000e+00,1.000000e+00,1.200000e-01,1.000000e+00,1.055430e-12,-7.32747e-15,9.329830e-13,-1.98119e-12,
1.300000e-01,0.000000e+00,1.000000e+00,1.300000e-01,1.000000e+00,1.055430e-12,-7.10543e-15,9.228425e-13,-1.97120e-12,
1.400000e-01,0.000000e+00,1.000000e+00,1.400000e-01,1.000000e+00,1.055430e-12,-7.10543e-15,9.127097e-13,-1.96121e-12,
1.500000e-01,0.000000e+00,1.000000e+00,1.500000e-01,1.000000e+00,1.055430e-12,-7.10543e-15,9.025840e-13,-1.95116e-12,
1.600000e-01,0.000000e+00,1.000000e+00,1.600000e-01,1.000000e+00,1.055430e-12,-6.88338e-15,8.924651e-13,-1.94122e-12,
1.700000e-01,0.000000e+00,1.000000e+00,1.700000e-01,1.000000e+00,1.055430e-12,-6.88338e-15,8.823527e-13,-1.93121e-12,
1.800000e-01,0.000000e+00,1.000000e+00,1.800000e-01,1.000000e+00,1.055430e-12,-6.88338e-15,8.722464e-13,-1.92116e-12,
1.900000e-01,0.000000e+00,1.000000e+00,1.900000e-01,1.000000e+00,1.055430e-12,-6.66134e-15,8.621459e-13,-1.91114e-12,
2.000000e-01,0.000000e+00,1.000000e+00,2.000000e-01,1.000000e+00,1.055430e-12,-6.66134e-15,8.520509e-13,-1.90117e-12,
2.100000e-01,0.000000e+00,1.000000e+00,2.100000e-01,1.000000e+00,1.055430e-12,-6.21725e-15,8.419612e-13,-1.89118e-12,
2.200000e-01,0.000000e+00,1.000000e+00,2.200000e-01,1.000000e+00,1.055430e-12,-5.99520e-15,8.318764e-13,-1.88122e-12,
2.300000e-01,0.000000e+00,1.000000e+00,2.300000e-01,1.000000e+00,1.055430e-12,-6.21725e-15,8.217963e-13,-1.87114e-12,
2.400000e-01,0.000000e+00,1.000000e+00,2.400000e-01,1.000000e+00,1.055430e-12,-5.77316e-15,8.117206e-13,-1.86118e-12,
2.500000e-01,0.000000e+00,1.000000e+00,2.500000e-01,1.000000e+00,1.055430e-12,-5.99520e-15,8.016492e-13,-1.85121e-12,
2.600000e-01,0.000000e+00,1.000000e+00,2.600000e-01,1.000000e+00,1.055430e-12,-5.99520e-15,7.915817e-13,-1.84117e-12,
2.700000e-01,0.000000e+00,1.000000e+00,2.700000e-01,1.000000e+00,1.055430e-12,-5.55112e-15,7.815180e-13,-1.83115e-12,
2.800000e-01,0.000000e+00,1.000000e+00,2.800000e-01,1.000000e+00,1.055430e-12,-5.77316e-15,7.714579e-13,-1.82121e-12,
2.900000e-01,0.000000e+00,1.000000e+00,2.900000e-01,1.000000e+00,1.055431e-12,-5.77316e-15,7.614012e-13,-1.81122e-12,
3.000000e-01,0.000000e+00,1.000000e+00,3.000000e-01,1.000000e+00,1.055431e-12,-5.32907e-15,7.513477e-13,-1.80123e-12,
3.100000e-01,0.000000e+00,1.000000e+00,3.100000e-01,1.000000e+00,1.055431e-12,-5.32907e-15,7.412972e-13,-1.79118e-12,
3.200000e-01,0.000000e+00,1.000000e+00,3.200000e-01,1.000000e+00,1.055431e-12,-5.55112e-15,7.312495e-13,-1.78116e-12,
3.300000e-01,0.000000e+00,1.000000e+00,3.300000e-01,1.000000e+00,1.055431e-12,-5.77316e-15,7.212046e-13,-1.77117e-12,
3.400000e-01,0.000000e+00,1.000000e+00,3.400000e-01,1.000000e+00,1.055431e-12,-5.32907e-15,7.111621e-13,-1.76115e-12,
3.500000e-01,0.000000e+00,1.000000e+00,3.500000e-01,1.000000e+00,1.055431e-12,-5.32907e-15,7.011220e-13,-1.75118e-12,
3.600000e-01,0.000000e+00,1.000000e+00,3.600000e-01,1.000000e+00,1.055432e-12,-5.32907e-15,6.910841e-13,-1.74116e-12,
3.700000e-01,0.000000e+00,1.000000e+00,3.700000e-01,1.000000e+00,1.055432e-12,-5.32907e-15,6.810482e-13,-1.73114e-12,
3.800000e-01,0.000000e+00,1.000000e+00,3.800000e-01,1.000000e+00,1.055433e-12,-5.32907e-15,6.710140e-13,-1.72115e-12,
3.900000e-01,0.000000e+00,1.000000e+00,3.900000e-01,1.000000e+00,1.055435e-12,-5.55112e-15,6.609815e-13,-1.71121e-12,
4.000000e-01,0.000000e+00,1.000000e+00,4.000000e-01,1.000000e+00,1.055436e-12,-5.32907e-15,6.509502e-13,-1.70119e-12,
4.100000e-01,0.000000e+00,1.000000e+00,4.100000e-01,1.000000e+00,1.055439e-12,-5.10703e-15,6.409199e-13,-1.69120e-12,
4.200000e-01,0.000000e+00,1.000000e+00,4.200000e-01,1.000000e+00,1.055443e-12,-5.10703e-15,6.308900e-13,-1.68116e-12,
4.300000e-01,0.000000e+00,1.000000e+00,4.300000e-01,1.000000e+00,1.055448e-12,-5.32907e-15,6.208600e-13,-1.67122e-12,
4.400000e-01,0.000000e+00,1.000000e+00,4.400000e-01,1.000000e+00,1.055456e-12,-5.32907e-15,6.108292e-13,-1.66123e-12,
4.500000e-01,0.000000e+00,1.000000e+00,4.500000e-01,1.000000e+00,1.055468e-12,-5.10703e-15,6.007962e-13,-1.65115e-12,
4.600000e-01,0.000000e+00,1.000000e+00,4.600000e-01,1.000000e+00,1.055484e-12,-5.32907e-15,5.907597e-13,-1.64124e-12,
4.700000e-01,0.000000e+00,1.000000e+00,4.700000e-01,1.000000e+00,1.055507e-12,-5.10703e-15,5.807173e-13,-1.63117e-12,
4.800000e-01,0.000000e+00,1.000000e+00,4.800000e-01,1.000000e+00,1.055541e-12,-5.10703e-15,5.706659e-13,-1.62118e-12,
4.900000e-01,0.000000e+00,1.000000e+00,4.900000e-01,1.000000e+00,1.055589e-12,-4.88498e-15,5.606011e-13,-1.61121e-12,
5.000000e-01,0.000000e+00,1.000000e+00,5.000000e-01,1.000000e+00,1.055658e-12,-5.10703e-15,5.505164e-13,-1.60114e-12,
5.100000e-01,0.000000e+00,1.000000e+00,5.100000e-01,1.000000e+00,1.055757e-12,-5.10703e-15,5.404026e-13,-1.59120e-12,
5.200000e-01,0.000000e+00,1.000000e+00,5.200000e-01,1.000000e+00,1.055899e-12,-5.10703e-15,5.302468e-13,-1.58121e-12,
5.300000e-01,0.000000e+00,1.000000e+00,5.300000e-01,1.000000e+00,1.056102e-12,-5.10703e-15,5.200302e-13,-1.57116e-12,
5.400000e-01,0.000000e+00,1.000000e+00,5.400000e-01,1.000000e+00,1.056394e-12,-4.88498e-15,5.097261e-13,-1.56114e-12,
5.500000e-01,0.000000e+00,1.000000e+00,5.500000e-01,1.000000e+00,1.056813e-12,-5.10703e-15,4.992961e-13,-1.55120e-12,
5.600000e-01,0.000000e+00,1.000000e+00,5.600000e-01,1.000000e+00,1.057413e-12,-5.10703e-15,4.886853e-13,-1.54121e-12,
5.700000e-01,0.000000e+00,1.000000e+00,5.700000e-01,1.000000e+00,1.058273e-12,-5.10703e-15,4.778152e-13,-1.53125e-12,
5.800000e-01,0.000000e+00,1.000000e+00,5.800000e-01,1.000000e+00,1.059506e-12,-5.10703e-15,4.665734e-13,-1.52117e-12,
5.900000e-01,0.000000e+00,1.000000e+00,5.900000e-01,1.000000e+00,1.061272e-12,-5.10703e-15,4.547986e-13,-1.51115e-12,
6.000000e-01,0.000000e+00,1.000000e+00,6.000000e-01,1.000000e+00,1.063802e-12,-5.10703e-15,4.422604e-13,-1.50116e-12,
6.100000e-01,0.000000e+00,1.000000e+00,6.100000e-01,1.000000e+00,1.067426e-12,-4.88498e-15,4.286286e-13,-1.49114e-12,
6.200000e-01,0.000000e+00,1.000000e+00,6.200000e-01,1.000000e+00,1.072617e-12,-4.88498e-15,4.134307e-13,-1.48118e-12,
6.300000e-01,0.000000e+00,1.000000e+00,6.300000e-01,1.000000e+00,1.080051e-12,-4.88498e-15,3.959900e-13,-1.47116e-12,
6.400000e-01,0.000000e+00,1.000000e+00,6.400000e-01,1.000000e+00,1.090696e-12,-5.10703e-15,3.753382e-13,-1.46114e-12,
6.500000e-01,0.000000e+00,1.000000e+00,6.500000e-01,1.000000e+00,1.105940e-12,-4.88498e-15,3.500889e-13,-1.45117e-12,
6.600000e-01,0.000000e+00,1.000000e+00,6.600000e-01,1.000000e+00,1.127766e-12,-4.88498e-15,3.182572e-13,-1.44121e-12,
6.700000e-01,0.000000e+00,1.000000e+00,6.700000e-01,1.000000e+00,1.159016e-12,-4.88498e-15,2.770022e-13,-1.43119e-12,
6.800000e-01,0.000000e+00,1.000000e+00,6.800000e-01,1.000000e+00,1.203757e-12,-4.88498e-15,2.222563e-13,-1.42120e-12,
6.900000e-01,0.000000e+00,1.000000e+00,6.900000e-01,1.000000e+00,1.267812e-12,-4.88498e-15,1.481962e-13,-1.41118e-12,
7.000000e-01,0.000000e+00,1.000000e+00,7.000000e-01,1.000000e+00,1.359518e-12,-4.88498e-15,4.648477e-14,-1.40116e-12,
7.100000e-01,0.000000e+00,1.000000e+00,7.100000e-01,1.000000e+00,1.490814e-12,-4.88498e-15,-9.48155e-14,-1.39116e-12,
7.200000e-01,0.000000e+00,1.000000e+00,7.200000e-01,1.000000e+00,1.678791e-12,-4.88498e-15,-2.92798e-13,-1.38115e-12,
7.300000e-01,0.000000e+00,1.000000e+00,7.300000e-01,1.000000e+00,1.947926e-12,-4.88498e-15,-5.71938e-13,-1.37113e-12,
7.400000e-01,0.000000e+00,1.000000e+00,7.400000e-01,1.000000e+00,2.333272e-12,-4.88498e-15,-9.67290e-13,-1.36111e-12,
7.500000e-01,0.000000e+00,1.000000e+00,7.500000e-01,1.000000e+00,2.885027e-12,-4.88498e-15,-1.52905e-12,-1.35103e-12,
7.600000e-01,0.000000e+00,1.000000e+00,7.600000e-01,1.000000e+00,3.675086e-12,-4.88498e-15,-2.32912e-12,-1.34109e-12,
7.700000e-01,0.000000e+00,1.000000e+00,7.700000e-01,1.000000e+00,4.806419e-12,-4.88498e-15,-3.47046e-12,-1.33113e-12,
7.800000e-01,0.000000e+00,1.000000e+00,7.800000e-01,1.000000e+00,6.426506e-12,-4.88498e-15,-5.10056e-12,-1.32111e-12,
7.900000e-01,0.000000e+00,1.000000e+00,7.900000e-01,1.000000e+00,8.746570e-12,-4.88498e-15,-7.43064e-12,-1.31109e-12,
8.000000e-01,0.000000e+00,1.000000e+00,8.000000e-01,1.000000e+00,1.206912e-11,-4.88498e-15,-1.07632e-11,-1.30101e-12,
8.100000e-01,0.000000e+00,1.000000e+00,8.100000e-01,1.000000e+00,1.682734e-11,-4.88498e-15,-1.55315e-11,-1.29097e-12,
8.200000e-01,0.000000e+00,1.000000e+00,8.200000e-01,1.000000e+00,2.364152e-11,-4.88498e-15,-2.23557e-11,-1.28095e-12,
8.300000e-01,0.000000e+00,1.000000e+00,8.300000e-01,1.000000e+00,3.339963e-11,-5.10703e-15,-3.21239e-11,-1.27090e-12,
8.400000e-01,0.000000e+00,1.000000e+00,8.400000e-01,1.000000e+00,4.737254e-11,-5.10703e-15,-4.61069e-11,-1.26085e-12,
8.500000e-01,0.000000e+00,1.000000e+00,8.500000e-01,1.000000e+00,6.737854e-11,-5.10703e-15,-6.61230e-11,-1.25075e-12,
8.600000e-01,0.000000e+00,1.000000e+00,8.600000e-01,1.000000e+00,9.601803e-11,-4.88498e-15,-9.47726e-11,-1.24059e-12,
8.700000e-01,0.000000e+00,1.000000e+00,8.700000e-01,1.000000e+00,1.370080e-10,-4.88498e-15,-1.35773e-10,-1.23024e-12,
8.800000e-01,0.000000e+00,1.000000e+00,8.800000e-01,1.000000e+00,1.956579e-10,-4.88498e-15,-1.94433e-10,-1.22014e-12,
8.900000e-01,0.000000e+00,1.000000e+00,8.900000e-01,1.000000e+00,2.795463e-10,-4.88498e-15,-2.78332e-10,-1.20964e-12,
9.000000e-01,0.000000e+00,1.000000e+00,9.000000e-01,1.000000e+00,3.994803e-10,-4.88498e-15,-3.98276e-10,-1.19904e-12,
9.100000e-01,0.000000e+00,1.000000e+00,9.100000e-01,1.000000e+00,5.708539e-10,-4.88498e-15,-5.69661e-10,-1.18833e-12,
9.200000e-01,0.000000e+00,1.000000e+00,9.200000e-01,1.000000e+00,8.155661e-10,-4.88498e-15,-8.14384e-10,-1.17731e-12,
9.300000e-01,0.000000e+00,1.000000e+00,9.300000e-01,1.000000e+00,1.164723e-09,-4.88498e-15,-1.16355e-09,-1.16590e-12,
9.400000e-01,0.000000e+00,1.000000e+00,9.400000e-01,1.000000e+00,1.662429e-09,-4.88498e-15,-1.66127e-09,-1.15383e-12,
9.500000e-01,0.000000e+00,1.000000e+00,9.500000e-01,1.000000e+00,2.371097e-09,-4.88498e-15,-2.36995e-09,-1.14106e-12,
9.600000e-01,0.000000e+00,1.000000e+00,9.600000e-01,1.000000e+00,3.378835e-09,-4.88498e-15,-3.37770e-09,-1.12738e-12,
9.700000e-01,0.000000e+00,1.000000e+00,9.700000e-01,1.000000e+00,4.809713e-09,-4.88498e-15,-4.80860e-09,-1.11205e-12,
9.800000e-01,0.000000e+00,1.000000e+00,9.800000e-01,1.000000e+00,6.837914e-09,-4.88498e-15,-6.83681e-09,-1.09479e-12,
9.900000e-01,0.000000e+00,1.000000e+00,9.900000e-01,1.000000e+00,9.707184e-09,-4.88498e-15,-9.70610e-09,-1.07500e-12,
1.000000e+00,0.000000e+00,1.000000e+00,1.000000e+00,1.000000e+00,1.375738e-08,-4.88498e-15,-1.37563e-08,-1.05141e-12,
